(1644168867.083064) can1 003#D5B2403D47A7F6BD
(1644168867.083585) can1 004#15AAE2BC00000000
(1644168867.085687) can1 005#F1402E3E920A863D
(1644168867.085964) can1 006#1A34853F00000000
(1644168867.091184) can1 003#C319673D1FF4F4BD
(1644168867.091706) can1 004#831CDEBC00000000
(1644168867.094313) can1 005#F1402E3E920A863D
(1644168867.094939) can1 006#1A34853F00000000
(1644168867.098392) can1 003#A08F773DC45FF4BD
(1644168867.099063) can1 004#5A04DCBC00000000
(1644168867.101991) can1 005#CE9A313E63828A3D
(1644168867.102660) can1 006#37D77D3F00000000
(1644168867.108037) can1 003#00F38D3D1773F2BD
(1644168867.108781) can1 004#7715D6BC00000000
(1644168867.111634) can1 005#08052C3E1E36913D
(1644168867.112369) can1 006#567B6E3F00000000
(1644168867.119199) can1 003#7C659D3DE4D2F0BD
(1644168867.119751) can1 004#A080D1BC00000000
(1644168867.121955) can1 005#13E72A3E35FA8E3D
(1644168867.122191) can1 006#0A2B5D3F00000000
(1644168867.128482) can1 003#AD52AC3DB6F9EEBD
(1644168867.129116) can1 004#6BB5CBBC00000000
(1644168867.130796) can1 005#6415233E939D9E3D
(1644168867.131887) can1 006#B8694C3F00000000
(1644168867.136548) can1 003#00C2B93DEC25EDBD
(1644168867.137174) can1 004#FB84C6BC00000000
(1644168867.138975) can1 005#B6431B3E939D9E3D
(1644168867.139518) can1 006#E3EF3B3F00000000
(1644168867.143036) can1 003#F138C03DDD1DECBD
(1644168867.143627) can1 004#5ED3C3BC00000000
(1644168867.145288) can1 005#0772133E368DA73D
(1644168867.146015) can1 006#1FC9293F00000000
(1644168867.151190) can1 003#F0A4CA3DC811EABD
(1644168867.151753) can1 004#E5D1BEBC00000000
(1644168867.154546) can1 005#0772133E368DA73D
(1644168867.155238) can1 006#1FC9293F00000000
(1644168867.158724) can1 003#57DECF3D840CE9BD
(1644168867.159267) can1 004#84CFBCBC00000000
(1644168867.162038) can1 005#9DEC043EC2B8B23D
(1644168867.162725) can1 006#D378183F00000000
(1644168867.168531) can1 003#E10AD93D5784E6BD
(1644168867.169160) can1 004#CA5BB8BC00000000
(1644168867.170821) can1 005#0BBEF53DDB0FC93D
(1644168867.171377) can1 006#1A34053F00000000
(1644168867.176543) can1 003#5739E03D1801E4BD
(1644168867.177239) can1 004#266CB4BC00000000
(1644168867.178903) can1 005#21EFDA3D9656E83D
(1644168867.179451) can1 006#BF6DE43E00000000
(1644168867.182936) can1 003#2BB3E33D6780E2BD
(1644168867.184035) can1 004#ABDDB2BC00000000
(1644168867.185375) can1 005#21EFDA3D9656E83D
(1644168867.186057) can1 006#BF6DE43E00000000
(1644168867.191182) can1 003#79DDE83DED3EDFBD
(1644168867.191741) can1 004#ED41AFBC00000000
(1644168867.194803) can1 005#F2D3C63DC092013E
(1644168867.195363) can1 006#5AC6BC3E00000000
(1644168867.198929) can1 003#D196EA3D7CFDDDBD
(1644168867.199481) can1 004#D557AEBC00000000
(1644168867.202556) can1 005#939D9E3D4CBE0C3E
(1644168867.203175) can1 006#EA3C963E00000000
(1644168867.208676) can1 003#AF85ED3D517DDABD
(1644168867.209325) can1 004#0929ACBC00000000
(1644168867.211992) can1 005#DD357A3DAA611C3E
(1644168867.212662) can1 006#FE485E3E00000000
(1644168867.219447) can1 003#13B6EE3DC9BFD6BD
(1644168867.220180) can1 004#6389AABC00000000
(1644168867.221709) can1 005#1FC9293D08052C3E
(1644168867.222493) can1 006#2918103E00000000
(1644168867.228803) can1 003#CCA7EE3DF0BBD2BD
(1644168867.230037) can1 004#CB94AABC00000000
(1644168867.231096) can1 005#66A8BB3C66A83B3E
(1644168867.231633) can1 006#7B46883D00000000
(1644168867.237945) can1 003#E1D6EC3D753ECEBD
(1644168867.238137) can1 004#B628AABC00000000
(1644168867.239701) can1 005#5077D63B89E1503E
(1644168867.240486) can1 006#DD35FABB00000000
(1644168867.245509) can1 003#2508EA3DCBB9C9BD
(1644168867.246245) can1 004#638CABBC00000000
(1644168867.247907) can1 005#7CD920BC0A2B5D3E
(1644168867.248533) can1 006#0805ACBD00000000
(1644168867.252391) can1 003#0CC1E73DDD38C7BD
(1644168867.253045) can1 004#F186ACBC00000000
(1644168867.255566) can1 005#7CD920BC0A2B5D3E
(1644168867.256293) can1 006#0805ACBD00000000
(1644168867.262039) can1 003#9EB2E23DE838C2BD
(1644168867.262625) can1 004#846CAEBC00000000
(1644168867.266038) can1 005#AC87CDBC68CE6C3E
(1644168867.266272) can1 006#AA611CBE00000000
(1644168867.271315) can1 003#7426DC3DDC3ABDBD
(1644168867.272051) can1 004#DE18B1BC00000000
(1644168867.273607) can1 005#66A83BBDD1537B3E
(1644168867.274311) can1 006#D0C062BE00000000
(1644168867.278061) can1 003#705CD83D7739BABD
(1644168867.278706) can1 004#79BFB2BC00000000
(1644168867.280304) can1 005#394671BD920A863E
(1644168867.280926) can1 006#E4CB96BE00000000
(1644168867.286053) can1 003#EF4ECF3DF17BB4BD
(1644168867.286613) can1 004#9DEBB6BC00000000
(1644168867.288368) can1 005#63828ABD522F8C3E
(1644168867.289005) can1 006#884EB8BE00000000
(1644168867.292735) can1 003#CDC8CA3D89C0B1BD
(1644168867.293282) can1 004#4C93B8BC00000000
(1644168867.295972) can1 005#63828ABD522F8C3E
(1644168867.296650) can1 006#884EB8BE00000000
(1644168867.302037) can1 003#97BBC03D1448ACBD
(1644168867.302356) can1 004#7CC7BCBC00000000
(1644168867.305290) can1 005#368DA7BD18C5913E
(1644168867.306035) can1 006#4A06D7BE00000000
(1644168867.309912) can1 003#9CF6BA3DEB4EA9BD
(1644168867.310097) can1 004#7642BFBC00000000
(1644168867.313037) can1 005#3720C0BDEFAD953E
(1644168867.313612) can1 006#0BBEF5BE00000000
(1644168867.320000) can1 003#67AAAF3D4F9AA3BD
(1644168867.320654) can1 004#D163C4BC00000000
(1644168867.322344) can1 005#673BD4BDEFAD953E
(1644168867.322948) can1 006#ECAB09BF00000000
(1644168867.329093) can1 003#659DA23DC3ED9DBD
(1644168867.329638) can1 004#D160C9BC00000000
(1644168867.331814) can1 005#F366DFBDD8E9973E
(1644168867.332052) can1 006#EA3C16BF00000000
(1644168867.337395) can1 003#D44D953D8C4698BD
(1644168867.338106) can1 004#E078CDBC00000000
(1644168867.339677) can1 005#F366DFBDC1259A3E
(1644168867.340442) can1 006#ED3E22BF00000000
(1644168867.345455) can1 003#38C0863D73A392BD
(1644168867.346198) can1 004#5989D2BC00000000
(1644168867.347741) can1 005#DCA2E1BDD8E9973E
(1644168867.348486) can1 006#6E882EBF00000000
(1644168867.352062) can1 003#9EF37D3DBEB58FBD
(1644168867.352768) can1 004#D90CD5BC00000000
(1644168867.355371) can1 005#DCA2E1BDD8E9973E
(1644168867.356056) can1 006#6E882EBF00000000
(1644168867.361842) can1 003#005B603DF69A8ABD
(1644168867.362058) can1 004#A564D9BC00000000
(1644168867.364770) can1 005#DCA2E1BDF51E953E
(1644168867.365314) can1 006#8EBF37BF00000000
(1644168867.368857) can1 003#054F4F3D9DF187BD
(1644168867.369427) can1 004#9AF5DBBC00000000
(1644168867.371163) can1 005#DCA2E1BD0CE3923E
(1644168867.371743) can1 006#B46740BF00000000
(1644168867.377278) can1 003#3033303D231E83BD
(1644168867.377978) can1 004#AE74DFBC00000000
(1644168867.379563) can1 005#21EFDABD464D8D3E
(1644168867.380283) can1 006#69AA47BF00000000
(1644168867.385326) can1 003#FE980F3D3F1E7DBD
(1644168867.386058) can1 004#4306E3BC00000000
(1644168867.387616) can1 005#7EFFD1BD75D5883E
(1644168867.388350) can1 006#29CF4DBF00000000
(1644168867.392556) can1 003#421DFC3C4A5378BD
(1644168867.393189) can1 004#E6C7E5BC00000000
(1644168867.395945) can1 005#7EFFD1BD75D5883E
(1644168867.396625) can1 006#29CF4DBF00000000
(1644168867.401614) can1 003#74F0B83CF9C26FBD
(1644168867.402360) can1 004#FF89E9BC00000000
(1644168867.405365) can1 005#F2D3C6BDC603813E
(1644168867.405946) can1 006#072951BF00000000
(1644168867.409289) can1 003#36D5973CB0FA6BBD
(1644168867.410029) can1 004#7F7CEABC00000000
(1644168867.411930) can1 005#205CC2BD68CE6C3E
(1644168867.412589) can1 006#EF6453BF00000000
(1644168867.419401) can1 003#C863313CE66865BD
(1644168867.420114) can1 004#4A95EDBC00000000
(1644168867.421672) can1 005#C2B8B2BD4495573E
(1644168867.422438) can1 006#61CA54BF00000000
(1644168867.428836) can1 003#8E97343B59635FBD
(1644168867.429379) can1 004#3DB7F0BC00000000
(1644168867.431142) can1 005#368DA7BD2C3E413E
(1644168867.431668) can1 006#673B54BF00000000
(1644168867.436791) can1 003#392EAABBBA5E5ABD
(1644168867.437408) can1 004#7EF7F2BC00000000
(1644168867.439143) can1 005#C1259ABD1FC9293E
(1644168867.439687) can1 006#F5D552BF00000000
(1644168867.443358) can1 003#D12A19BC07A058BD
(1644168867.444038) can1 004#7813F4BC00000000
(1644168867.447049) can1 005#C1259ABD1FC9293E
(1644168867.447635) can1 006#F5D552BF00000000
(1644168867.454419) can1 003#A9AD89BC231655BD
(1644168867.455041) can1 004#3485F5BC00000000
(1644168867.457990) can1 005#4CBE8CBD35FA0E3E
(1644168867.458172) can1 006#187C4FBF00000000
(1644168867.465037) can1 003#D4BBC3BC230B53BD
(1644168867.465622) can1 004#2113F7BC00000000
(1644168867.468109) can1 005#AEAD7EBD7F92EA3D
(1644168867.468746) can1 006#CF2D4ABF00000000
(1644168867.474833) can1 003#6ABFFFBCDF0152BD
(1644168867.475405) can1 004#B28FF8BC00000000
(1644168867.477852) can1 005#68CE6CBDF140AE3D
(1644168867.478046) can1 006#147A43BF00000000
(1644168867.484934) can1 003#5ADE18BD44EA51BD
(1644168867.485491) can1 004#9C4CFABC00000000
(1644168867.487918) can1 005#507756BD5077D63C
(1644168867.488158) can1 006#C2B832BF00000000
(1644168867.494979) can1 003#8E5733BD6C5953BD
(1644168867.496037) can1 004#56E5FBBC00000000
(1644168867.498018) can1 005#AC874DBD35FA0EBB
(1644168867.498657) can1 006#301C28BF00000000
(1644168867.504822) can1 003#F2524BBD76C055BD
(1644168867.506038) can1 004#3192FCBC00000000
(1644168867.507949) can1 005#099844BD9656E8BC
(1644168867.508540) can1 006#16561EBF00000000
(1644168867.514771) can1 003#464260BD19A058BD
(1644168867.516036) can1 004#AA56FFBC00000000
(1644168867.518232) can1 005#507756BD0BBE75BD
(1644168867.518872) can1 006#8F9B12BF00000000
(1644168867.524144) can1 003#F42E74BD90F95CBD
(1644168867.524786) can1 004#6D8500BD00000000
(1644168867.526447) can1 005#372040BD0805ACBD
(1644168867.527036) can1 006#0F5206BF00000000
(1644168867.532832) can1 003#AACD82BDCD4D62BD
(1644168867.534036) can1 004#DF6501BD00000000
(1644168867.535162) can1 005#943037BDAD1AE6BD
(1644168867.535672) can1 006#2282F3BE00000000
(1644168867.540897) can1 003#B6C18ABD179568BD
(1644168867.542036) can1 004#10C101BD00000000
(1644168867.544408) can1 005#C2B832BD63820ABE
(1644168867.545045) can1 006#2760DABE00000000
(1644168867.548500) can1 003#EB7A8EBD34BD6BBD
(1644168867.549136) can1 004#177102BD00000000
(1644168867.550780) can1 005#F1402EBDB6431BBE
(1644168867.551342) can1 006#4973BEBE00000000
(1644168867.556751) can1 003#D16B94BD587A72BD
(1644168867.558037) can1 004#5C5D03BD00000000
(1644168867.559040) can1 005#7CD920BD1FC929BE
(1644168867.559592) can1 006#7CD9A0BE00000000
(1644168867.563126) can1 003#DD2597BDC81676BD
(1644168867.564036) can1 004#219403BD00000000
(1644168867.566722) can1 005#7CD920BD1FC929BE
(1644168867.567286) can1 006#7CD9A0BE00000000
(1644168867.573743) can1 003#7F959BBD1D497DBD
(1644168867.574500) can1 004#4E8C04BD00000000
(1644168867.576139) can1 005#7CD920BDABF434BE
(1644168867.576778) can1 006#977B85BE00000000
(1644168867.582597) can1 003#D8C39EBD127982BD
(1644168867.583256) can1 004#619005BD00000000
(1644168867.584905) can1 005#DD35FABC4EE43DBE
(1644168867.585461) can1 006#B8694CBE00000000
(1644168867.591802) can1 003#00F4A0BD6E4786BD
(1644168867.591931) can1 004#7A2206BD00000000
(1644168867.594907) can1 005#5077D6BC43023FBE
(1644168867.595454) can1 006#1E3611BE00000000
(1644168867.599002) can1 003#2C6BA1BD320B88BD
(1644168867.600036) can1 004#227706BD00000000
(1644168867.601759) can1 005#1FC9A9BC66A83BBE
(1644168867.601887) can1 006#6415A3BD00000000
(1644168867.607015) can1 003#08DEA1BD7F908BBD
(1644168867.608036) can1 004#90AA06BD00000000
(1644168867.609370) can1 005#099844BC943037BE
(1644168867.610050) can1 006#1FC9A9BC00000000
(1644168867.613538) can1 003#3156A1BDD08D8DBD
(1644168867.614266) can1 004#A58B06BD00000000
(1644168867.617153) can1 005#099844BC943037BE
(1644168867.617841) can1 006#1FC9A9BC00000000
(1644168867.623184) can1 003#0F07A0BD37CA90BD
(1644168867.623779) can1 004#2BE206BD00000000
(1644168867.625425) can1 005#35FA8EBBCE9A31BE
(1644168867.626172) can1 006#AA611C3D00000000
(1644168867.631259) can1 003#CE7A9DBD69BF93BD
(1644168867.631898) can1 004#0BD606BD00000000
(1644168867.633462) can1 005#5077563B2BAB28BE
(1644168867.634187) can1 006#205CC23D00000000
(1644168867.638015) can1 003#83B49BBD163895BD
(1644168867.638265) can1 004#30DA06BD00000000
(1644168867.639959) can1 005#9656683C87BB1FBE
(1644168867.640611) can1 006#E4CB163E00000000
(1644168867.645650) can1 003#056A97BD382498BD
(1644168867.646321) can1 004#CF7206BD00000000
(1644168867.649147) can1 005#9656683C87BB1FBE
(1644168867.649674) can1 006#E4CB163E00000000
(1644168867.653261) can1 003#65E394BD089A99BD
(1644168867.653911) can1 004#B48706BD00000000
(1644168867.656893) can1 005#C2B8B23CE4CB16BE
(1644168867.657394) can1 006#89E1503E00000000
(1644168867.663236) can1 003#641A8FBD12FC9BBD
(1644168867.663901) can1 004#B2C905BD00000000
(1644168867.666815) can1 005#3946F13C4CBE0CBE
(1644168867.667352) can1 006#B4B0823E00000000
(1644168867.672608) can1 003#D2D188BD1C219EBD
(1644168867.673247) can1 004#859F05BD00000000
(1644168867.674875) can1 005#AA611C3DA9CE03BE
(1644168867.675424) can1 006#B6439B3E00000000
(1644168867.681718) can1 003#840A81BDE979A0BD
(1644168867.681921) can1 004#E79004BD00000000
(1644168867.683494) can1 005#F1402E3DC671FCBD
(1644168867.684216) can1 006#BC47B33E00000000
(1644168867.687965) can1 003#B38E79BD6067A1BD
(1644168867.688633) can1 004#E55704BD00000000
(1644168867.690276) can1 005#F1402E3DC671FCBD
(1644168867.690897) can1 006#BC47B33E00000000
(1644168867.696029) can1 003#56FC68BDCF80A3BD
(1644168867.696653) can1 004#2EDE03BD00000000
(1644168867.699350) can1 005#C2B8323D68CEECBD
(1644168867.700037) can1 006#DB0FC93E00000000
(1644168867.703534) can1 003#A6FA5FBDCF6BA4BD
(1644168867.704256) can1 004#322D03BD00000000
(1644168867.707152) can1 005#7EFF513D21EFDABD
(1644168867.707848) can1 006#160DDC3E00000000
(1644168867.714789) can1 003#3A6D4BBD993CA6BD
(1644168867.715341) can1 004#F56602BD00000000
(1644168867.718446) can1 005#68CE6C3D5077D6BD
(1644168867.719038) can1 006#4B99EF3E00000000
(1644168867.725150) can1 003#056037BDD10EA8BD
(1644168867.725671) can1 004#14A001BD00000000
(1644168867.727363) can1 005#AEAD7E3D95C3CFBD
(1644168867.728036) can1 006#C603013F00000000
(1644168867.734246) can1 003#9A5321BDC19DA9BD
(1644168867.734905) can1 004#ADF500BD00000000
(1644168867.736577) can1 005#DD357A3DDB0FC9BD
(1644168867.737211) can1 006#F88D083F00000000
(1644168867.742337) can1 003#DCCB09BDDA6BABBD
(1644168867.742951) can1 004#A2BEFFBC00000000
(1644168867.744624) can1 005#AEAD7E3DDB0FC9BD
(1644168867.745259) can1 006#A1EE103F00000000
(1644168867.748709) can1 003#4D8DF8BCDE4FACBD
(1644168867.749272) can1 004#43D2FEBC00000000
(1644168867.751020) can1 005#7B46883D66A8BBBD
(1644168867.751560) can1 006#44DE193F00000000
(1644168867.756875) can1 003#3171C8BC50DCADBD
(1644168867.757437) can1 004#8DC0FDBC00000000
(1644168867.760308) can1 005#7B46883D66A8BBBD
(1644168867.760944) can1 006#44DE193F00000000
(1644168867.764385) can1 003#D664ABBCE4BEAEBD
(1644168867.765015) can1 004#7FF2FCBC00000000
(1644168867.767923) can1 005#4CBE8C3D9430B7BD
(1644168867.768577) can1 006#F3AF213F00000000
(1644168867.775119) can1 003#FE946ABC0109B0BD
(1644168867.775650) can1 004#AC37FCBC00000000
(1644168867.777316) can1 005#63828A3DD97CB0BD
(1644168867.778050) can1 006#A8F2283F00000000
(1644168867.785066) can1 003#E7B3F4BBB44EB1BD
(1644168867.786037) can1 004#F497FBBC00000000
(1644168867.787269) can1 005#63828A3DF140AEBD
(1644168867.788002) can1 006#D97C303F00000000
(1644168867.793393) can1 003#E3EDBFB929D8B2BD
(1644168867.794126) can1 004#4F20FCBC00000000
(1644168867.795658) can1 005#63828A3D0805ACBD
(1644168867.796434) can1 006#9AA1363F00000000
(1644168867.801451) can1 003#C98EDC3BD75EB4BD
(1644168867.802189) can1 004#2FAFFBBC00000000
(1644168867.803771) can1 005#AEAD7E3D9430B7BD
(1644168867.804491) can1 006#5AC63C3F00000000
(1644168867.807945) can1 003#0A80303C083EB5BD
(1644168867.808590) can1 004#4A29FCBC00000000
(1644168867.810952) can1 005#AEAD7E3D9430B7BD
(1644168867.811517) can1 006#5AC63C3F00000000
(1644168867.815064) can1 003#69C8683CA021B6BD
(1644168867.815604) can1 004#C46EFDBC00000000
(1644168867.818646) can1 005#DD357A3D3720C0BD
(1644168867.819257) can1 006#26CD413F00000000
(1644168867.825904) can1 003#A9A2B43CF823B8BD
(1644168867.826042) can1 004#BF64FEBC00000000
(1644168867.827648) can1 005#21EF5A3D673BD4BD
(1644168867.828417) can1 006#806E453F00000000
(1644168867.834831) can1 003#59F4F13CC26ABABD
(1644168867.836037) can1 004#7D2800BD00000000
(1644168867.837136) can1 005#7EFF513D2282F3BD
(1644168867.837667) can1 006#EC62473F00000000
(1644168867.844896) can1 003#279D183DD8ACBCBD
(1644168867.845467) can1 004#ABB000BD00000000
(1644168867.848337) can1 005#AC874D3DB4B002BE
(1644168867.848962) can1 006#5857493F00000000
(1644168867.855066) can1 003#D14D383DA36FBFBD
(1644168867.855604) can1 004#4FCA01BD00000000
(1644168867.858663) can1 005#DB0F493DFB8F14BE
(1644168867.859274) can1 006#52E6493F00000000
(1644168867.865407) can1 003#1281563D8874C2BD
(1644168867.866126) can1 004#51E002BD00000000
(1644168867.868767) can1 005#7EFF513D368D27BE
(1644168867.869385) can1 006#6339483F00000000
(1644168867.876037) can1 003#ED32763DDCB6C5BD
(1644168867.876307) can1 004#C99703BD00000000
(1644168867.877944) can1 005#AC874D3DC2B832BE
(1644168867.878597) can1 006#F2D3463F00000000
(1644168867.884733) can1 003#41B78A3D677CC9BD
(1644168867.885283) can1 004#326104BD00000000
(1644168867.887019) can1 005#AC874D3D205C42BE
(1644168867.887568) can1 006#0327453F00000000
(1644168867.893360) can1 003#7856993DAC85CDBD
(1644168867.894038) can1 004#E92405BD00000000
(1644168867.895654) can1 005#AC874D3D5B5955BE
(1644168867.896409) can1 006#AFF6403F00000000
(1644168867.901391) can1 003#D4F7A73D14CED1BD
(1644168867.902142) can1 004#DFFC05BD00000000
(1644168867.903662) can1 005#7EFF513D965668BE
(1644168867.904446) can1 006#DD7E3C3F00000000
(1644168867.908299) can1 003#D7CBAF3D1231D4BD
(1644168867.908902) can1 004#B48206BD00000000
(1644168867.911599) can1 005#7EFF513D965668BE
(1644168867.912354) can1 006#DD7E3C3F00000000
(1644168867.918156) can1 003#D26BBD3DDDBFD8BD
(1644168867.918768) can1 004#FADD06BD00000000
(1644168867.921871) can1 005#3946713D394671BE
(1644168867.922519) can1 006#0596383F00000000
(1644168867.927521) can1 003#97CDCA3D4F8FDDBD
(1644168867.928265) can1 004#844807BD00000000
(1644168867.929902) can1 005#DD357A3DAEAD7EBE
(1644168867.930574) can1 006#4BE2313F00000000
(1644168867.934009) can1 003#0425D23D377AE0BD
(1644168867.934659) can1 004#1D6607BD00000000
(1644168867.936331) can1 005#AEAD7E3DA35D84BE
(1644168867.936924) can1 006#969F2A3F00000000
(1644168867.942062) can1 003#D8C6DD3DD151E5BD
(1644168867.942708) can1 004#ADB807BD00000000
(1644168867.944373) can1 005#63828A3D6F6489BE
(1644168867.944989) can1 006#E25C233F00000000
(1644168867.948440) can1 003#0C98E33D13C1E7BD
(1644168867.949037) can1 004#58A807BD00000000
(1644168867.951960) can1 005#63828A3D6F6489BE
(1644168867.952607) can1 006#E25C233F00000000
(1644168867.958390) can1 003#E8BAEE3D5765EDBD
(1644168867.959012) can1 004#351A07BD00000000
(1644168867.961688) can1 005#EFAD953D464D8DBE
(1644168867.962438) can1 006#C1251A3F00000000
(1644168867.968033) can1 003#F519F93D1C0AF3BD
(1644168867.968268) can1 004#C38206BD00000000
(1644168867.970994) can1 005#EFAD953DFB8F94BE
(1644168867.971530) can1 006#BE230E3F00000000
(1644168867.975059) can1 003#D06BFE3D763FF6BD
(1644168867.975596) can1 004#9A0D06BD00000000
(1644168867.977261) can1 005#C1259A3DDE5A97BE
(1644168867.977991) can1 006#32F8023F00000000
(1644168867.983888) can1 003#C487033E4531FCBD
(1644168867.984121) can1 004#616105BD00000000
(1644168867.985638) can1 005#C1259A3DC1259ABE
(1644168867.986425) can1 006#625DED3E00000000
(1644168867.992033) can1 003#AF56073E82F200BE
(1644168867.992157) can1 004#E89604BD00000000
(1644168867.993867) can1 005#0772933DB0D29BBE
(1644168867.994529) can1 006#8470D13E00000000
(1644168867.997989) can1 003#BDFF083ECA5002BE
(1644168867.998628) can1 004#D36204BD00000000
(1644168868.001263) can1 005#0772933DB0D29BBE
(1644168868.001975) can1 006#8470D13E00000000
(1644168868.007120) can1 003#AFEC0B3E875105BE
(1644168868.007650) can1 004#12F702BD00000000
(1644168868.010523) can1 005#0772933DC79699BE
(1644168868.011159) can1 006#B7D6B33E00000000
(1644168868.014623) can1 003#A1520D3E22F106BE
(1644168868.015239) can1 004#014802BD00000000
(1644168868.016898) can1 005#1E36913DB0D29BBE
(1644168868.017935) can1 006#C796993E00000000
(1644168868.023684) can1 003#1F600F3EAAD409BE
(1644168868.024381) can1 004#1D2501BD00000000
(1644168868.026018) can1 005#63828A3DD37898BE
(1644168868.026741) can1 006#510A6F3E00000000
(1644168868.031861) can1 003#CDA9103E4B9A0CBE
(1644168868.032467) can1 004#F48FFFBC00000000
(1644168868.034141) can1 005#0BBE753DD37898BE
(1644168868.034789) can1 006#F1402E3E00000000
(1644168868.038724) can1 003#1210113E201D0EBE
(1644168868.039262) can1 004#61A5FEBC00000000
(1644168868.041007) can1 005#0BBE753DD37898BE
(1644168868.041550) can1 006#F1402E3E00000000
(1644168868.046736) can1 003#0159113EEA0711BE
(1644168868.048036) can1 004#0378FBBC00000000
(1644168868.050337) can1 005#21EF5A3DE4CB96BE
(1644168868.050978) can1 006#95C3CF3D00000000
(1644168868.054422) can1 003#DD3D113E8E6D12BE
(1644168868.055071) can1 004#E034FABC00000000
(1644168868.056851) can1 005#66A83B3D010194BE
(1644168868.057391) can1 006#9656E83C00000000
(1644168868.062630) can1 003#4161103E401C15BE
(1644168868.064037) can1 004#DD37F6BC00000000
(1644168868.064917) can1 005#D8E9173D18C591BE
(1644168868.066036) can1 006#099844BD00000000
(1644168868.069002) can1 003#57A30F3E9DA216BE
(1644168868.069545) can1 004#71A2F4BC00000000
(1644168868.072610) can1 005#D8E9173D18C591BE
(1644168868.073233) can1 006#099844BD00000000
(1644168868.078795) can1 003#AF830D3E053319BE
(1644168868.079332) can1 004#9BC8F0BC00000000
(1644168868.081067) can1 005#F366DF3C41DC8DBE
(1644168868.081626) can1 006#CC7400BE00000000
(1644168868.086759) can1 003#8F840A3E54C51BBE
(1644168868.088037) can1 004#5D5DEDBC00000000
(1644168868.089120) can1 005#7CD9A03C7B4688BE
(1644168868.089645) can1 006#449557BE00000000
(1644168868.093196) can1 003#8FA3083E24311DBE
(1644168868.093857) can1 004#C8F7EABC00000000
(1644168868.095414) can1 005#7CD9203CA35D84BE
(1644168868.096148) can1 006#EFAD95BE00000000
(1644168868.101938) can1 003#10C1043EFC821FBE
(1644168868.102591) can1 004#8DC2E7BC00000000
(1644168868.104237) can1 005#C2B8B2BBBA8F7DBE
(1644168868.104879) can1 006#66A8BBBE00000000
(1644168868.108416) can1 003#A33F023EB8AF20BE
(1644168868.109051) can1 004#49C9E5BC00000000
(1644168868.111949) can1 005#C2B8B2BBBA8F7DBE
(1644168868.112628) can1 006#66A8BBBE00000000
(1644168868.117637) can1 003#EA7BFA3DA3C222BE
(1644168868.118373) can1 004#61A3E3BC00000000
(1644168868.121290) can1 005#7CD9A0BC7F926ABE
(1644168868.121983) can1 006#E113E1BE00000000
(1644168868.127229) can1 003#75F4EE3D78B424BE
(1644168868.127857) can1 004#86DAE1BC00000000
(1644168868.129424) can1 005#AA611CBD673B54BE
(1644168868.130151) can1 006#376902BF00000000
(1644168868.133696) can1 003#4F30E83DBF9E25BE
(1644168868.134348) can1 004#3614E1BC00000000
(1644168868.135992) can1 005#DD357ABD4EE43DBE
(1644168868.136749) can1 006#18C511BF00000000
(1644168868.141704) can1 003#9FEADA3D0E3127BE
(1644168868.142467) can1 004#A36FE0BC00000000
(1644168868.144358) can1 005#7CD9A0BD70F721BE
(1644168868.144989) can1 006#814A20BF00000000
(1644168868.148469) can1 003#3F22D43D97BB27BE
(1644168868.149035) can1 004#6C6EDFBC00000000
(1644168868.152066) can1 005#7CD9A0BD70F721BE
(1644168868.152717) can1 006#814A20BF00000000
(1644168868.157693) can1 003#16DFC53D4BCD28BE
(1644168868.158428) can1 004#2528E0BC00000000
(1644168868.161124) can1 005#F2D3C6BDC09201BE
(1644168868.161821) can1 006#6E882EBF00000000
(1644168868.165712) can1 003#995BBD3DAC3829BE
(1644168868.165933) can1 004#487FE0BC00000000
(1644168868.167485) can1 005#9656E8BD0998C4BD
(1644168868.168231) can1 006#F4423ABF00000000
(1644168868.175149) can1 003#3254AD3DA4CD29BE
(1644168868.175649) can1 004#AD61E1BC00000000
(1644168868.177369) can1 005#6F6409BEC09281BD
(1644168868.178105) can1 006#7AFD45BF00000000
(1644168868.183895) can1 003#CF4B9D3D5AFF29BE
(1644168868.184553) can1 004#001AE3BC00000000
(1644168868.186135) can1 005#B6431BBEC09201BD
(1644168868.186845) can1 006#0C9A50BF00000000
(1644168868.191910) can1 003#70C58B3D79F629BE
(1644168868.192556) can1 004#4343E5BC00000000
(1644168868.194559) can1 005#B6431BBEC09201BD
(1644168868.195195) can1 006#0C9A50BF00000000
(1644168868.198842) can1 003#6480823D62E329BE
(1644168868.199380) can1 004#1629E6BC00000000
(1644168868.202413) can1 005#4D5125BE35FA0E3B
(1644168868.203062) can1 006#2DD159BF00000000
(1644168868.208752) can1 003#51695E3D005C29BE
(1644168868.209368) can1 004#019FE8BC00000000
(1644168868.212425) can1 005#D97C30BEC092013D
(1644168868.213044) can1 006#D63162BF00000000
(1644168868.218748) can1 003#36CF3A3DE29528BE
(1644168868.219360) can1 004#0C94EABC00000000
(1644168868.222425) can1 005#884E38BE0BBE753D
(1644168868.222988) can1 006#85036ABF00000000
(1644168868.228662) can1 003#A3B3133D7E9327BE
(1644168868.229213) can1 004#6BFBECBC00000000
(1644168868.230962) can1 005#66A83BBE3720C03D
(1644168868.231500) can1 006#C26F70BF00000000
(1644168868.236687) can1 003#4B13D83C055326BE
(1644168868.237251) can1 004#B057EEBC00000000
(1644168868.238993) can1 005#5AC63CBE2282F33D
(1644168868.239537) can1 006#0BBE75BF00000000
(1644168868.243401) can1 003#86F3AD3CF78325BE
(1644168868.244136) can1 004#D6D8EFBC00000000
(1644168868.245691) can1 005#43023FBEEFAD153E
(1644168868.246429) can1 006#E3A679BF00000000
(1644168868.252125) can1 003#EB3E413CA6E323BE
(1644168868.252843) can1 004#DF80F1BC00000000
(1644168868.255051) can1 005#43023FBEEFAD153E
(1644168868.255580) can1 006#E3A679BF00000000
(1644168868.259304) can1 003#2782E13B1B1723BE
(1644168868.260045) can1 004#5343F1BC00000000
(1644168868.262746) can1 005#5AC63CBE08052C3E
(1644168868.263316) can1 006#C6717CBF00000000
(1644168868.268922) can1 003#9B2758BB921A21BE
(1644168868.269458) can1 004#FBA0F2BC00000000
(1644168868.272341) can1 005#943037BEFDB5453E
(1644168868.272965) can1 006#B41E7EBF00000000
(1644168868.278741) can1 003#F7CC4CBCB21F1FBE
(1644168868.279284) can1 004#96CEF3BC00000000
(1644168868.281035) can1 005#CE9A31BE38B3583E
(1644168868.281578) can1 006#37D77DBF00000000
(1644168868.286742) can1 003#53E7B4BC04C41CBE
(1644168868.288036) can1 004#F9E7F3BC00000000
(1644168868.289102) can1 005#2BAB28BE8B74693E
(1644168868.289620) can1 006#482A7CBF00000000
(1644168868.293508) can1 003#FA39DCBC09971BBE
(1644168868.294244) can1 004#D105F3BC00000000
(1644168868.295900) can1 005#87BB1FBEF4F9773E
(1644168868.296549) can1 006#655F79BF00000000
(1644168868.302304) can1 003#16E214BDC93C19BE
(1644168868.302932) can1 004#387AF2BC00000000
(1644168868.305349) can1 005#87BB1FBEF4F9773E
(1644168868.306066) can1 006#655F79BF00000000
(1644168868.309460) can1 003#D0842ABDEBF117BE
(1644168868.310186) can1 004#1C75F2BC00000000
(1644168868.313087) can1 005#D8E917BEC092813E
(1644168868.313684) can1 006#880576BF00000000
(1644168868.320622) can1 003#9FC750BD0DF615BE
(1644168868.322037) can1 004#522FF1BC00000000
(1644168868.324187) can1 005#63820ABEB4B0823E
(1644168868.324828) can1 006#880576BF00000000
(1644168868.330341) can1 003#620379BDBE6014BE
(1644168868.330961) can1 004#82B6F0BC00000000
(1644168868.332578) can1 005#C09201BE68CE6C3E
(1644168868.333240) can1 006#DD357ABF00000000
(1644168868.338364) can1 003#96DF8FBDBC2813BE
(1644168868.338983) can1 004#A779EFBC00000000
(1644168868.340657) can1 005#920A06BE66A83B3E
(1644168868.341216) can1 006#4E9B7BBF00000000
(1644168868.344741) can1 003#E8EB98BD7BBB12BE
(1644168868.346037) can1 004#B204EFBC00000000
(1644168868.347036) can1 005#7B4608BECD07193E
(1644168868.348036) can1 006#EE8878BF00000000
(1644168868.352839) can1 003#3D04ADBD49A511BE
(1644168868.354036) can1 004#1DA9EEBC00000000
(1644168868.355937) can1 005#7B4608BECD07193E
(1644168868.356598) can1 006#EE8878BF00000000
(1644168868.360052) can1 003#99CDB5BD323B11BE
(1644168868.360687) can1 004#7958EFBC00000000
(1644168868.363338) can1 005#7B4608BEC092013E
(1644168868.364057) can1 006#77B277BF00000000
(1644168868.369532) can1 003#B962C7BD9C4310BE
(1644168868.370294) can1 004#FFC9EFBC00000000
(1644168868.373216) can1 005#7B4608BE3946F13D
(1644168868.373857) can1 006#34D571BF00000000
(1644168868.379984) can1 003#4571D8BDFB6C0FBE
(1644168868.380604) can1 004#5765F1BC00000000
(1644168868.382300) can1 005#41DC0DBE3946F13D
(1644168868.382917) can1 006#3CB564BF00000000
(1644168868.388000) can1 003#897EE8BD88750EBE
(1644168868.388655) can1 004#1966F3BC00000000
(1644168868.390333) can1 005#35FA0EBEC4DEE33D
(1644168868.390929) can1 006#4A0657BF00000000
(1644168868.394471) can1 003#F47EF0BDC9EA0DBE
(1644168868.395107) can1 004#BF73F5BC00000000
(1644168868.396769) can1 005#63820ABE0A2BDD3D
(1644168868.397324) can1 006#2F404DBF00000000
(1644168868.402490) can1 003#6089FEBDA2D10CBE
(1644168868.403061) can1 004#D32BF8BC00000000
(1644168868.405886) can1 005#63820ABE0A2BDD3D
(1644168868.406545) can1 006#2F404DBF00000000
(1644168868.409993) can1 003#BDA702BEE6650CBE
(1644168868.410628) can1 004#CB90F9BC00000000
(1644168868.413509) can1 005#862807BEDCA2E13D
(1644168868.414265) can1 006#C6BA3EBF00000000
(1644168868.419984) can1 003#808B08BE3A460BBE
(1644168868.420214) can1 004#16FBFBBC00000000
(1644168868.423117) can1 005#C09201BE510AEF3D
(1644168868.423804) can1 006#F6B12DBF00000000
(1644168868.429239) can1 003#A8F00DBED2270ABE
(1644168868.429966) can1 004#F7BBFEBC00000000
(1644168868.431527) can1 005#2282F3BDAEADFE3D
(1644168868.432284) can1 006#990E1EBF00000000
(1644168868.437499) can1 003#34B312BE1DE608BE
(1644168868.438249) can1 004#F3F700BD00000000
(1644168868.439889) can1 005#9656E8BDA9CE033E
(1644168868.440541) can1 006#464D0DBF00000000
(1644168868.444084) can1 003#19D514BE845308BE
(1644168868.444740) can1 004#BA9301BD00000000
(1644168868.446910) can1 005#9656E8BDA9CE033E
(1644168868.447471) can1 006#464D0DBF00000000
(1644168868.452704) can1 003#AAB418BE0AEE06BE
(1644168868.453248) can1 004#D97A03BD00000000
(1644168868.456398) can1 005#38B3D8BD63820A3E
(1644168868.456998) can1 006#0BBEF5BE00000000
(1644168868.460443) can1 003#D0151ABE985906BE
(1644168868.461119) can1 004#FF4D04BD00000000
(1644168868.463853) can1 005#0998C4BD35FA0E3E
(1644168868.464479) can1 006#721DD3BE00000000
(1644168868.469991) can1 003#4FF71CBECCAF04BE
(1644168868.470653) can1 004#9D1306BD00000000
(1644168868.473487) can1 005#ABF4B4BDFB8F143E
(1644168868.474233) can1 006#CE9AB1BE00000000
(1644168868.480698) can1 003#36D51EBE1D2103BE
(1644168868.481236) can1 004#C21508BD00000000
(1644168868.482980) can1 005#368DA7BDAA611C3E
(1644168868.483527) can1 006#5E118BBE00000000
(1644168868.489867) can1 003#2F1520BE7F6E01BE
(1644168868.490498) can1 004#C2CD09BD00000000
(1644168868.492157) can1 005#1E3691BD368D273E
(1644168868.492800) can1 006#721D53BE00000000
(1644168868.497890) can1 003#48B720BE8D2FFFBD
(1644168868.498537) can1 004#583A0BBD00000000
(1644168868.500187) can1 005#C09281BDD97C303E
(1644168868.500839) can1 006#58A00BBE00000000
(1644168868.504606) can1 003#F5D520BED333FDBD
(1644168868.505218) can1 004#A6000CBD00000000
(1644168868.507411) can1 005#C09281BDD97C303E
(1644168868.508145) can1 006#58A00BBE00000000
(1644168868.513921) can1 003#F47520BED0FCF8BD
(1644168868.514590) can1 004#FFC00DBD00000000
(1644168868.517167) can1 005#507756BD718A3A3E
(1644168868.517863) can1 006#63828ABD00000000
(1644168868.522916) can1 003#78971FBE35FDF4BD
(1644168868.523500) can1 004#AD150FBD00000000
(1644168868.526539) can1 005#C2B832BD0998443E
(1644168868.527180) can1 006#C2B8B2BB00000000
(1644168868.530663) can1 003#B2D81EBE8377F2BD
(1644168868.531206) can1 004#85A50FBD00000000
(1644168868.532949) can1 005#DD35FABC89E1503E
(1644168868.533492) can1 006#0BBE753D00000000
(1644168868.540050) can1 003#621A1DBEAAE9EDBD
(1644168868.540684) can1 004#16BE10BD00000000
(1644168868.542350) can1 005#DD35FABB73B06B3E
(1644168868.542965) can1 006#9F12363E00000000
(1644168868.548764) can1 003#4D9C1ABE86CEE8BD
(1644168868.549306) can1 004#AC9011BD00000000
(1644168868.551043) can1 005#DD35FA3BF4F9773E
(1644168868.552036) can1 006#68CE6C3E00000000
(1644168868.557325) can1 003#B5E017BE0A6DE3BD
(1644168868.558046) can1 004#91F411BD00000000
(1644168868.559621) can1 005#35FA8E3CB4B0823E
(1644168868.560356) can1 006#0101943E00000000
(1644168868.564256) can1 003#A70316BE7A92E0BD
(1644168868.564831) can1 004#19C411BD00000000
(1644168868.567542) can1 005#35FA8E3CB4B0823E
(1644168868.568296) can1 006#0101943E00000000
(1644168868.573310) can1 003#C46A12BEB0A6DABD
(1644168868.574044) can1 004#34DF11BD00000000
(1644168868.576722) can1 005#9656E83C7B46883E
(1644168868.577328) can1 006#EBCFAE3E00000000
(1644168868.582476) can1 003#474F0EBE89F3D4BD
(1644168868.583159) can1 004#430012BD00000000
(1644168868.584850) can1 005#7CD9203D2918903E
(1644168868.585391) can1 006#E6F1C73E00000000
(1644168868.589117) can1 003#F5D40BBECC90D1BD
(1644168868.589665) can1 004#F67411BD00000000
(1644168868.591356) can1 005#3720403DEFAD953E
(1644168868.592053) can1 006#E113E13E00000000
(1644168868.597187) can1 003#ED3B07BE3496CBBD
(1644168868.597817) can1 004#8C2511BD00000000
(1644168868.599903) can1 005#C4DE633DBBB49A3E
(1644168868.600120) can1 006#DD35FA3E00000000
(1644168868.603962) can1 003#076004BE2835C8BD
(1644168868.604643) can1 004#E12111BD00000000
(1644168868.607559) can1 005#C4DE633DBBB49A3E
(1644168868.608215) can1 006#DD35FA3E00000000
(1644168868.613847) can1 003#84D6FDBDEBACC1BD
(1644168868.614494) can1 004#67F70FBD00000000
(1644168868.617394) can1 005#C092813D8D2C9F3E
(1644168868.618122) can1 006#75D5083F00000000
(1644168868.623925) can1 003#FCE9F1BD7325BBBD
(1644168868.624566) can1 004#43530FBD00000000
(1644168868.627200) can1 005#1E36913D6415A33E
(1644168868.627903) can1 006#84B9133F00000000
(1644168868.632986) can1 003#A341E5BD3E58B4BD
(1644168868.633545) can1 004#E2330EBD00000000
(1644168868.635214) can1 005#7CD9A03D47E0A53E
(1644168868.635923) can1 006#939D1E3F00000000
(1644168868.639279) can1 003#D88DDEBD75AAB0BD
(1644168868.639999) can1 004#6C290DBD00000000
(1644168868.641598) can1 005#D97CB03D368DA73E
(1644168868.642349) can1 006#B3D4273F00000000
(1644168868.647349) can1 003#A326D0BD5C98A9BD
(1644168868.648089) can1 004#7D150CBD00000000
(1644168868.649664) can1 005#66A8BB3D0E76AB3E
(1644168868.650401) can1 006#CE9A313F00000000
(1644168868.654303) can1 003#99B5C9BD602FA6BD
(1644168868.654900) can1 004#CAEE0ABD00000000
(1644168868.657877) can1 005#66A8BB3D0E76AB3E
(1644168868.658544) can1 006#CE9A313F00000000
(1644168868.664282) can1 003#1613BABD9C979EBD
(1644168868.664952) can1 004#525A09BD00000000
(1644168868.667874) can1 005#3720C03DF140AE3E
(1644168868.668511) can1 006#E3EF3B3F00000000
(1644168868.674306) can1 003#17EFAABD1C8397BD
(1644168868.674919) can1 004#0B9407BD00000000
(1644168868.677879) can1 005#95C3CF3DD40BB13E
(1644168868.678423) can1 006#806E453F00000000
(1644168868.684285) can1 003#058D9ABDCDEB8FBD
(1644168868.684905) can1 004#8FD305BD00000000
(1644168868.686597) can1 005#21EFDA3D9430B73E
(1644168868.687242) can1 006#120B503F00000000
(1644168868.692340) can1 003#7BB089BDA11488BD
(1644168868.692969) can1 004#C58203BD00000000
(1644168868.694648) can1 005#38B3D83D6037BC3E
(1644168868.695189) can1 006#4A06573F00000000
(1644168868.698733) can1 003#E2BE80BDF52884BD
(1644168868.699287) can1 004#92D502BD00000000
(1644168868.700965) can1 005#673BD43D6037BC3E
(1644168868.701577) can1 006#E784603F00000000
(1644168868.705035) can1 003#F79A6FBDB63D80BD
(1644168868.705609) can1 004#9E1F02BD00000000
(1644168868.708440) can1 005#673BD43D6037BC3E
(1644168868.709068) can1 006#E784603F00000000
(1644168868.715922) can1 003#C66249BD664570BD
(1644168868.716579) can1 004#B762FFBC00000000
(1644168868.719186) can1 005#95C3CF3D4302BF3E
(1644168868.719836) can1 006#9656683F00000000
(1644168868.726273) can1 003#682225BD552561BD
(1644168868.726915) can1 004#B416FCBC00000000
(1644168868.729428) can1 005#DB0FC93D3720C03E
(1644168868.730100) can1 006#CE516F3F00000000
(1644168868.736382) can1 003#D7C9FABCA37850BD
(1644168868.736995) can1 004#4EBCF8BC00000000
(1644168868.738700) can1 005#C34BCB3D3720C03E
(1644168868.739243) can1 006#1C11743F00000000
(1644168868.745951) can1 003#973FAFBC60DC41BD
(1644168868.746586) can1 004#77F0F5BC00000000
(1644168868.748268) can1 005#7D6CB93D4EE4BD3E
(1644168868.748896) can1 006#655F793F00000000
(1644168868.754588) can1 003#25773FBC17BF32BD
(1644168868.755201) can1 004#76FBF2BC00000000
(1644168868.758246) can1 005#ABF4B43D66A8BB3E
(1644168868.758865) can1 006#B41E7E3F00000000
(1644168868.764644) can1 003#668111BB39A924BD
(1644168868.765203) can1 004#C1B0EFBC00000000
(1644168868.768244) can1 005#4D51A53D9F12B63E
(1644168868.768836) can1 006#9009803F00000000
(1644168868.774637) can1 003#B895F53B3E9516BD
(1644168868.775202) can1 004#3C2FEEBC00000000
(1644168868.778266) can1 005#1E36913DF6B1AD3E
(1644168868.778846) can1 006#C603813F00000000
(1644168868.784651) can1 003#1A028E3C408109BD
(1644168868.785217) can1 004#7F70ECBC00000000
(1644168868.786961) can1 005#68CE6C3D4D51A53E
(1644168868.787507) can1 006#016F813F00000000
(1644168868.792877) can1 003#D0A8DD3C74DFFABC
(1644168868.793419) can1 004#2873EBBC00000000
(1644168868.795183) can1 005#7EFF513DB0D29B3E
(1644168868.795844) can1 006#49BC803F00000000
(1644168868.799378) can1 003#88BE023D0C4FEFBC
(1644168868.800057) can1 004#0BE0EABC00000000
(1644168868.801666) can1 005#1FC9293D41DC8D3E
(1644168868.802407) can1 006#26847F3F00000000
(1644168868.807422) can1 003#7E9A2A3D3732D9BC
(1644168868.808097) can1 004#7B9BEABC00000000
(1644168868.810335) can1 005#1FC9293D41DC8D3E
(1644168868.810957) can1 006#26847F3F00000000
(1644168868.814502) can1 003#A0873D3D12ABCFBC
(1644168868.815131) can1 004#80E3E9BC00000000
(1644168868.817859) can1 005#0772133DBA8F7D3E
(1644168868.818519) can1 006#4E9B7B3F00000000
(1644168868.824272) can1 003#4B6D613D41B4BFBC
(1644168868.824913) can1 004#1963E8BC00000000
(1644168868.827832) can1 005#63820A3D160D5C3E
(1644168868.828473) can1 006#054D763F00000000
(1644168868.834078) can1 003#15EC823D99B4B1BC
(1644168868.834274) can1 004#D9D1E7BC00000000
(1644168868.835883) can1 005#63820A3D884E383E
(1644168868.836566) can1 006#5CEC6D3F00000000
(1644168868.842333) can1 003#9B63943D3ACAA6BC
(1644168868.842955) can1 004#8C35E6BC00000000
(1644168868.844623) can1 005#35FA0E3D0772133E
(1644168868.846043) can1 006#A238673F00000000
(1644168868.849144) can1 003#BBA09D3DF444A2BC
(1644168868.849662) can1 004#F06CE6BC00000000
(1644168868.851355) can1 005#DD35FA3C7EFFD13D
(1644168868.852089) can1 006#7C905E3F00000000
(1644168868.857848) can1 003#9B1FAD3D7A7D9CBC
(1644168868.858504) can1 004#DCD5E4BC00000000
(1644168868.860758) can1 005#DD35FA3C7EFFD13D
(1644168868.861308) can1 006#7C905E3F00000000
(1644168868.864889) can1 003#DF1DB63D46079ABC
(1644168868.865451) can1 004#3015E4BC00000000
(1644168868.868503) can1 005#63820A3D4CBE8C3D
(1644168868.869145) can1 006#61CA543F00000000
(1644168868.874308) can1 003#BFA1C43D765199BC
(1644168868.874891) can1 004#4EA2E2BC00000000
(1644168868.877785) can1 005#35FA0E3DDD35FA3C
(1644168868.878483) can1 006#52E6493F00000000
(1644168868.884321) can1 003#3E67D23D9FB59ABC
(1644168868.884954) can1 004#3742E0BC00000000
(1644168868.886637) can1 005#AA611C3D35FA8EBB
(1644168868.887200) can1 006#4EE43D3F00000000
(1644168868.892326) can1 003#C86FDF3D6B279FBC
(1644168868.892950) can1 004#C007DEBC00000000
(1644168868.894685) can1 005#F1402E3D7CD920BD
(1644168868.895243) can1 006#4BE2313F00000000
(1644168868.899181) can1 003#6AB3E53DA4EAA2BC
(1644168868.899842) can1 004#E27EDCBC00000000
(1644168868.901964) can1 005#9430373D4D51A5BD
(1644168868.902039) can1 006#DCEB233F00000000
(1644168868.907175) can1 003#703FF13DB184ABBC
(1644168868.907881) can1 004#DC7ED9BC00000000
(1644168868.910739) can1 005#9430373D4D51A5BD
(1644168868.912037) can1 006#DCEB233F00000000
(1644168868.914821) can1 003#3004F73DCC60B1BC
(1644168868.915393) can1 004#5F19D7BC00000000
(1644168868.918220) can1 005#7EFF513D7F92EABD
(1644168868.918835) can1 006#E4CB163F00000000
(1644168868.924047) can1 003#E8C9FB3DC13CB7BC
(1644168868.924276) can1 004#0EADD5BC00000000
(1644168868.926426) can1 005#9656683DD8E917BE
(1644168868.927037) can1 006#E63A0A3F00000000
(1644168868.933902) can1 003#20B0043E3D02CCBC
(1644168868.934568) can1 004#AEAACFBC00000000
(1644168868.936229) can1 005#9656683DC2B832BE
(1644168868.936863) can1 006#112FF53E00000000
(1644168868.940314) can1 003#E4B3063E04EBD3BC
(1644168868.940943) can1 004#9865CEBC00000000
(1644168868.942596) can1 005#9656683DB8694CBE
(1644168868.943855) can1 006#38B3D83E00000000
(1644168868.948342) can1 003#E47B0A3EFBE5E6BC
(1644168868.948978) can1 004#CE15CABC00000000
(1644168868.951319) can1 005#9656683DB8694CBE
(1644168868.952063) can1 006#38B3D83E00000000
(1644168868.955967) can1 003#CCFF0B3E7FDEEEBC
(1644168868.956097) can1 004#2ECFC8BC00000000
(1644168868.958844) can1 005#9656683DC4DE63BE
(1644168868.959395) can1 006#5455BD3E00000000
(1644168868.966368) can1 003#F1A80E3E277501BD
(1644168868.966991) can1 004#B787C5BC00000000
(1644168868.969623) can1 005#F3665F3D00DC76BE
(1644168868.970316) can1 006#939D9E3E00000000
(1644168868.976563) can1 003#EBCF103ED4800BBD
(1644168868.977239) can1 004#9F39C2BC00000000
(1644168868.979901) can1 005#7EFF513DAF3F83BE
(1644168868.980569) can1 006#C092813E00000000
(1644168868.985999) can1 003#1A58123E2B8315BD
(1644168868.986631) can1 004#F7DEC0BC00000000
(1644168868.988313) can1 005#C2B8323D75D588BE
(1644168868.988943) can1 006#C34B4B3E00000000
(1644168868.994668) can1 003#B960133EE19420BD
(1644168868.995216) can1 004#689EBEBC00000000
(1644168868.996947) can1 005#D8E9173D464D8DBE
(1644168868.997511) can1 006#2918103E00000000
(1644168869.002712) can1 003#15EA133E44A42BBD
(1644168869.003260) can1 004#6C4EBDBC00000000
(1644168869.004943) can1 005#5077D63C2F898FBE
(1644168869.005596) can1 006#1FC9A93D00000000
(1644168869.009886) can1 003#620E143E5BA731BD
(1644168869.010076) can1 004#D932BDBC00000000
(1644168869.012037) can1 005#5077D63C2F898FBE
(1644168869.012718) can1 006#1FC9A93D00000000
(1644168869.017816) can1 003#0AB9133E7F303CBD
(1644168869.018455) can1 004#C2ABBDBC00000000
(1644168869.021318) can1 005#D8E9973C35FA8EBE
(1644168869.022035) can1 006#3946F13C00000000
(1644168869.025963) can1 003#945D133E4E3A42BD
(1644168869.026196) can1 004#1979BDBC00000000
(1644168869.029037) can1 005#C2B8323C41DC8DBE
(1644168869.029768) can1 006#7CD9A0BC00000000
(1644168869.036593) can1 003#3766123E39C94CBD
(1644168869.038036) can1 004#85CCBDBC00000000
(1644168869.038873) can1 005#507756BB522F8CBE
(1644168869.039433) can1 006#D8E997BD00000000
(1644168869.045769) can1 003#E1CE103EFECA57BD
(1644168869.046434) can1 004#3A08C0BC00000000
(1644168869.048036) can1 005#35FA8EBC69F389BE
(1644168869.048712) can1 006#C671FCBD00000000
(1644168869.053830) can1 003#10DA0E3E76CD61BD
(1644168869.054502) can1 004#E005C3BC00000000
(1644168869.056545) can1 005#920A06BD7B4688BE
(1644168869.057155) can1 006#E55E2FBE00000000
(1644168869.062903) can1 003#BB830C3E304A6BBD
(1644168869.063493) can1 004#DBCEC6BC00000000
(1644168869.065181) can1 005#AC874DBDC09281BE
(1644168869.065894) can1 006#0A2B5DBE00000000
(1644168869.069881) can1 003#F80A0B3E64CA70BD
(1644168869.070073) can1 004#E938C9BC00000000
(1644168869.072587) can1 005#AC874DBDC09281BE
(1644168869.074036) can1 006#0A2B5DBE00000000
(1644168869.078327) can1 003#17F6073E764B7ABD
(1644168869.078981) can1 004#66C2CDBC00000000
(1644168869.081919) can1 005#0BBE75BDBA8F7DBE
(1644168869.082558) can1 006#920A86BE00000000
(1644168869.085991) can1 003#EC3B063EEF447FBD
(1644168869.086619) can1 004#6EFCD0BC00000000
(1644168869.088306) can1 005#077293BD228273BE
(1644168869.088913) can1 006#C79699BE00000000
(1644168869.094732) can1 003#8988023E196584BD
(1644168869.095275) can1 004#1647D6BC00000000
(1644168869.096999) can1 005#1FC9A9BD73B06BBE
(1644168869.097630) can1 006#DFEDAFBE00000000
(1644168869.102696) can1 003#E626FD3D39A588BD
(1644168869.103307) can1 004#A34BDCBC00000000
(1644168869.105057) can1 005#205CC2BD965668BE
(1644168869.105577) can1 006#F744C6BE00000000
(1644168869.109166) can1 003#84F6F83DD7E88ABD
(1644168869.109812) can1 004#064BDFBC00000000
(1644168869.112663) can1 005#205CC2BD965668BE
(1644168869.113220) can1 006#F744C6BE00000000
(1644168869.116790) can1 003#5442F43DC52C8DBD
(1644168869.117332) can1 004#7B30E2BC00000000
(1644168869.120116) can1 005#F2D3C6BDDCA261BE
(1644168869.120748) can1 006#38B3D8BE00000000
(1644168869.126874) can1 003#6B5BEA3DC2F791BD
(1644168869.127418) can1 004#75E8E7BC00000000
(1644168869.130443) can1 005#7EFFD1BDE78460BE
(1644168869.131133) can1 006#68CEECBE00000000
(1644168869.137061) can1 003#9577E03DE08696BD
(1644168869.137751) can1 004#D67EEDBC00000000
(1644168869.139334) can1 005#38B3D8BDC4DE63BE
(1644168869.140060) can1 006#BA8FFDBE00000000
(1644168869.146288) can1 003#7951D53D9D5A9BBD
(1644168869.146922) can1 004#8DD8F2BC00000000
(1644168869.148568) can1 005#38B3D8BDD0C062BE
(1644168869.149150) can1 006#8C9906BF00000000
(1644168869.155990) can1 003#26AFCA3D6430A0BD
(1644168869.156621) can1 004#7A2FF8BC00000000
(1644168869.158303) can1 005#673BD4BD73B06BBE
(1644168869.158930) can1 006#C3940DBF00000000
(1644168869.164693) can1 003#51CCBE3D4290A5BD
(1644168869.165246) can1 004#0C52FCBC00000000
(1644168869.166933) can1 005#AC87CDBD0BBE75BE
(1644168869.168038) can1 006#FB8F14BF00000000
(1644168869.172691) can1 003#6466B23D4AF1AABD
(1644168869.173281) can1 004#A21D00BD00000000
(1644168869.175017) can1 005#F2D3C6BDA3CB7FBE
(1644168869.175565) can1 006#C1251ABF00000000
(1644168869.179542) can1 003#2B38AC3D8DC3ADBD
(1644168869.180336) can1 004#C95601BD00000000
(1644168869.183296) can1 005#F2D3C6BDA3CB7FBE
(1644168869.184039) can1 006#C1251ABF00000000
(1644168869.189805) can1 003#6E949F3DF0ACB3BD
(1644168869.190425) can1 004#E0B802BD00000000
(1644168869.192049) can1 005#F2D3C6BD80B787BE
(1644168869.192768) can1 006#040320BF00000000
(1644168869.197875) can1 003#AEEE923D95D9B9BD
(1644168869.198505) can1 004#B18C03BD00000000
(1644168869.200171) can1 005#F140AEBD3B6B8EBE
(1644168869.200816) can1 006#E25C23BF00000000
(1644168869.204641) can1 003#213F8C3D0B32BDBD
(1644168869.205225) can1 004#452C04BD00000000
(1644168869.206977) can1 005#6415A3BDFB8F94BE
(1644168869.207515) can1 006#CA9825BF00000000
(1644168869.212689) can1 003#50317E3D9323C4BD
(1644168869.213279) can1 004#D56104BD00000000
(1644168869.215014) can1 005#077293BD87BB9FBE
(1644168869.215558) can1 006#B3D427BF00000000
(1644168869.219420) can1 003#AECB713D427CC7BD
(1644168869.220151) can1 004#807C04BD00000000
(1644168869.223147) can1 005#077293BD87BB9FBE
(1644168869.223791) can1 006#B3D427BF00000000
(1644168869.228806) can1 003#9702583DBCAFCEBD
(1644168869.230043) can1 004#5E9C04BD00000000
(1644168869.232311) can1 005#920A86BD426FA6BE
(1644168869.232924) can1 006#A8F228BF00000000
(1644168869.237963) can1 003#74B63E3DE326D6BD
(1644168869.238615) can1 004#713004BD00000000
(1644168869.240309) can1 005#C09281BDE55EAFBE
(1644168869.240920) can1 006#368D27BF00000000
(1644168869.244796) can1 003#4350303DDDC4DABD
(1644168869.245345) can1 004#78A203BD00000000
(1644168869.247095) can1 005#965668BD884EB8BE
(1644168869.247636) can1 006#BFB626BF00000000
(1644168869.252824) can1 003#3E03193DF376E2BD
(1644168869.254036) can1 004#632F03BD00000000
(1644168869.255156) can1 005#F3665FBD2C3EC1BE
(1644168869.255777) can1 006#DCEB23BF00000000
(1644168869.260037) can1 003#B4180D3D178FE6BD
(1644168869.260263) can1 004#B8AA02BD00000000
(1644168869.263693) can1 005#F3665FBD2C3EC1BE
(1644168869.263871) can1 006#DCEB23BF00000000
(1644168869.270036) can1 003#D08AEA3C2802EFBD
(1644168869.270314) can1 004#029301BD00000000
(1644168869.273685) can1 005#DB0F49BDDB0FC9BE
(1644168869.273913) can1 006#FF9120BF00000000
(1644168869.278970) can1 003#96E3BD3C0575F7BD
(1644168869.279508) can1 004#367B00BD00000000
(1644168869.282561) can1 005#943037BD89E1D0BE
(1644168869.283173) can1 006#B6431BBF00000000
(1644168869.286669) can1 003#C017A53C5790FCBD
(1644168869.287243) can1 004#26AFFFBC00000000
(1644168869.288985) can1 005#F1402EBD3E24D8BE
(1644168869.289533) can1 006#6DF515BF00000000
(1644168869.296429) can1 003#0DDF763C61BF02BE
(1644168869.297044) can1 004#8F69FDBC00000000
(1644168869.298694) can1 005#077213BD160DDCBE
(1644168869.299256) can1 006#35FA0EBF00000000
(1644168869.305036) can1 003#2D87293CB73407BE
(1644168869.305623) can1 004#C627FBBC00000000
(1644168869.307313) can1 005#63820ABDD631E2BE
(1644168869.308053) can1 006#FDFE07BF00000000
(1644168869.313129) can1 003#7E15C03BBEC80BBE
(1644168869.313782) can1 004#9ADCF7BC00000000
(1644168869.315879) can1 005#C09201BDAD1AE6BE
(1644168869.316060) can1 006#AEADFEBE00000000
(1644168869.319923) can1 003#6C65713B46120EBE
(1644168869.320605) can1 004#C8B0F6BC00000000
(1644168869.323234) can1 005#C09201BDAD1AE6BE
(1644168869.323980) can1 006#AEADFEBE00000000
(1644168869.329814) can1 003#A1C2DEB91C0613BE
(1644168869.330467) can1 004#7963F4BC00000000
(1644168869.333847) can1 005#3946F1BC9CC7E7BE
(1644168869.334071) can1 006#625DEDBE00000000
(1644168869.339804) can1 003#F6B280BB9A9717BE
(1644168869.340484) can1 004#3F4CF2BC00000000
(1644168869.342059) can1 005#9656E8BC6E3FECBE
(1644168869.342786) can1 006#21EFDABE00000000
(1644168869.347863) can1 003#632EE7BB96271CBE
(1644168869.348492) can1 004#F450F1BC00000000
(1644168869.350157) can1 005#5077D6BC625DEDBE
(1644168869.350804) can1 006#0998C4BE00000000
(1644168869.354274) can1 003#98410BBCB48D1EBE
(1644168869.354903) can1 004#6158F0BC00000000
(1644168869.356556) can1 005#0998C4BC8B74E9BE
(1644168869.357138) can1 006#E55EAFBE00000000
(1644168869.360676) can1 003#01F920BC7DB320BE
(1644168869.361220) can1 004#DC6EEFBC00000000
(1644168869.364063) can1 005#0998C4BC8B74E9BE
(1644168869.364710) can1 006#E55EAFBE00000000
(1644168869.370245) can1 003#066148BC6E2025BE
(1644168869.370885) can1 004#06B6EDBC00000000
(1644168869.373813) can1 005#66A8BBBCB38BE5BE
(1644168869.374469) can1 006#D37898BE00000000
(1644168869.382061) can1 003#75CD67BCB74B29BE
(1644168869.382239) can1 004#C13FECBC00000000
(1644168869.385217) can1 005#1FC9A9BCE784E0BE
(1644168869.385935) can1 006#B4B082BE00000000
(1644168869.391214) can1 003#119980BC9E752DBE
(1644168869.391933) can1 004#9AFAEABC00000000
(1644168869.393525) can1 005#920A86BC38B3D8BE
(1644168869.394234) can1 006#C4DE63BE00000000
(1644168869.400041) can1 003#053489BC385E31BE
(1644168869.400677) can1 004#8C08EBBC00000000
(1644168869.402342) can1 005#965668BC61CAD4BE
(1644168869.402981) can1 006#B7D633BE00000000
(1644168869.408114) can1 003#F3E48FBCDE2535BE
(1644168869.408753) can1 004#EC3AEABC00000000
(1644168869.411640) can1 005#C2B832BCBEDACBBE
(1644168869.411856) can1 006#AEADFEBD00000000
(1644168869.415932) can1 003#8AB891BCA10737BE
(1644168869.416118) can1 004#C6F2E9BC00000000
(1644168869.417795) can1 005#507756BB26CDC1BE
(1644168869.418418) can1 006#4EE4BDBD00000000
(1644168869.424058) can1 003#A05F93BC44AD3ABE
(1644168869.424239) can1 004#C094E9BC00000000
(1644168869.426176) can1 005#35FA0EBB7D6CB9BE
(1644168869.426799) can1 006#965668BD00000000
(1644168869.430338) can1 003#193192BCFB4D3CBE
(1644168869.430972) can1 004#4896E9BC00000000
(1644168869.433915) can1 005#35FA0EBB7D6CB9BE
(1644168869.434549) can1 006#965668BD00000000
(1644168869.441436) can1 003#C1DA8FBCAC4F3FBE
(1644168869.442175) can1 004#AE9EE9BC00000000
(1644168869.443834) can1 005#C2B8B23BEBCFAEBE
(1644168869.444405) can1 006#C2B832BC00000000
(1644168869.450961) can1 003#D9958BBC415042BE
(1644168869.451503) can1 004#D9D6E8BC00000000
(1644168869.453174) can1 005#5077D63B5933A4BE
(1644168869.453897) can1 006#1FC9A93C00000000
(1644168869.458973) can1 003#823083BCA20F45BE
(1644168869.459510) can1 004#A87DE9BC00000000
(1644168869.461404) can1 005#C2B8323CB0D29BBE
(1644168869.462139) can1 006#C2B8323D00000000
(1644168869.465512) can1 003#7FFA7DBC516F46BE
(1644168869.466256) can1 004#4DD3E9BC00000000
(1644168869.467908) can1 005#920A863C1E3691BE
(1644168869.468560) can1 006#7CD9A03D00000000
(1644168869.473794) can1 003#7E5D69BCEDED48BE
(1644168869.474437) can1 004#8DB5E9BC00000000
(1644168869.476420) can1 005#920A863C1E3691BE
(1644168869.477094) can1 006#7CD9A03D00000000
(1644168869.480520) can1 003#74025FBCA6ED49BE
(1644168869.481194) can1 004#D02DEABC00000000
(1644168869.484071) can1 005#66A8BB3C977B85BE
(1644168869.484744) can1 006#0A2BDD3D00000000
(1644168869.490351) can1 003#CC9146BC64284CBE
(1644168869.490983) can1 004#B148E9BC00000000
(1644168869.492657) can1 005#3946F13C00DC76BE
(1644168869.493210) can1 006#AEADFE3D00000000
(1644168869.498404) can1 003#DDEB29BCF1254EBE
(1644168869.499036) can1 004#79A8E9BC00000000
(1644168869.500682) can1 005#DD35FA3CC4DE63BE
(1644168869.501240) can1 006#FB8F143E00000000
(1644168869.505134) can1 003#277519BC53244FBE
(1644168869.505860) can1 004#7F77EABC00000000
(1644168869.507414) can1 005#920A063D89E150BE
(1644168869.508176) can1 006#FC222D3E00000000
(1644168869.513172) can1 003#1FF7F1BBFCDD50BE
(1644168869.513903) can1 004#6111EABC00000000
(1644168869.516532) can1 005#920A063D89E150BE
(1644168869.517539) can1 006#FC222D3E00000000
(1644168869.520721) can1 003#5E3DD5BB057A51BE
(1644168869.521265) can1 004#6CC9EABC00000000
(1644168869.524300) can1 005#0772133D5AC63CBE
(1644168869.524929) can1 006#66A83B3E00000000
(1644168869.531143) can1 003#A1408CBB65F652BE
(1644168869.531768) can1 004#2BA7EABC00000000
(1644168869.534685) can1 005#AA611C3D13E72ABE
(1644168869.535237) can1 006#0998443E00000000
(1644168869.540637) can1 003#94D306BBB80C54BE
(1644168869.541185) can1 004#1184EABC00000000
(1644168869.542917) can1 005#4D51253DEFAD15BE
(1644168869.543478) can1 006#5077563E00000000
(1644168869.548763) can1 003#1F892838F90655BE
(1644168869.549537) can1 004#2D4EEABC00000000
(1644168869.551048) can1 005#3720403DAEADFEBD
(1644168869.551561) can1 006#E784603E00000000
(1644168869.555151) can1 003#FFA9963AB86555BE
(1644168869.555860) can1 004#C643EABC00000000
(1644168869.557977) can1 005#3720403DAEADFEBD
(1644168869.558218) can1 006#E784603E00000000
(1644168869.563184) can1 003#7F94543B071D56BE
(1644168869.563910) can1 004#B90EEABC00000000
(1644168869.566716) can1 005#DB0F493DAC87CDBD
(1644168869.567223) can1 006#160D5C3E00000000
(1644168869.570780) can1 003#F3A4923B2B5856BE
(1644168869.571327) can1 004#6A1DEABC00000000
(1644168869.574359) can1 005#3720403D7CD9A0BD
(1644168869.574998) can1 006#E784603E00000000
(1644168869.580269) can1 003#9B87CF3BC9F356BE
(1644168869.580888) can1 004#F2BCEABC00000000
(1644168869.583843) can1 005#3720403D7B4688BD
(1644168869.584486) can1 006#5077563E00000000
(1644168869.590243) can1 003#9DEC033CD86C57BE
(1644168869.590859) can1 004#CE39EABC00000000
(1644168869.592543) can1 005#9430373D099844BD
(1644168869.593129) can1 006#5AC63C3E00000000
(1644168869.598296) can1 003#F3001E3C1FAA57BE
(1644168869.598906) can1 004#639DE9BC00000000
(1644168869.600579) can1 005#F1402E3D7CD920BD
(1644168869.601143) can1 006#426F263E00000000
(1644168869.605038) can1 003#08D6293C5CE757BE
(1644168869.605616) can1 004#363DE8BC00000000
(1644168869.607615) can1 005#F1402E3D7CD920BD
(1644168869.608353) can1 006#426F263E00000000
(1644168869.613898) can1 003#F0C53D3CEF0258BE
(1644168869.614090) can1 004#B749E7BC00000000
(1644168869.617041) can1 005#C2B8323D9656E8BC
(1644168869.617608) can1 006#35FA0E3E00000000
(1644168869.621039) can1 003#69B1453C4C0158BE
(1644168869.621737) can1 004#8CB3E6BC00000000
(1644168869.624638) can1 005#F1402E3DC2B832BC
(1644168869.625179) can1 006#68CEEC3D00000000
(1644168869.630786) can1 003#0B41533CF3DE57BE
(1644168869.631334) can1 004#4765E4BC00000000
(1644168869.634414) can1 005#1FC9293D35FA8E3B
(1644168869.635036) can1 006#4EE4BD3D00000000
(1644168869.641917) can1 003#AFEA5C3C239A57BE
(1644168869.642582) can1 004#2BDEE2BC00000000
(1644168869.644231) can1 005#7CD9203DF366DF3C
(1644168869.644858) can1 006#63828A3D00000000
(1644168869.651133) can1 003#EE80643C8B1957BE
(1644168869.651766) can1 004#BB3AE1BC00000000
(1644168869.653328) can1 005#3946F13CF1402E3D
(1644168869.654059) can1 006#9430373D00000000
(1644168869.659178) can1 003#192D663C427A56BE
(1644168869.659795) can1 004#D846E0BC00000000
(1644168869.661353) can1 005#1FC9A93C68CE6C3D
(1644168869.662037) can1 006#66A8BB3C00000000
(1644168869.665771) can1 003#A31A683CFE1656BE
(1644168869.666428) can1 004#C357E0BC00000000
(1644168869.668383) can1 005#C2B8323C939D9E3D
(1644168869.668985) can1 006#C2B8B23B00000000
(1644168869.674115) can1 003#739B653CD11555BE
(1644168869.674758) can1 004#F422DFBC00000000
(1644168869.677399) can1 005#C2B8323C939D9E3D
(1644168869.678113) can1 006#C2B8B23B00000000
(1644168869.681498) can1 003#6B65613C9D7754BE
(1644168869.682259) can1 004#DDE1DEBC00000000
(1644168869.685636) can1 005#5077D63B7EFFD13D
(1644168869.685814) can1 006#D8E997BC00000000
(1644168869.691576) can1 003#4AB95A3C07F852BE
(1644168869.691800) can1 004#8F6FDDBC00000000
(1644168869.693864) can1 005#DD35FA3B58A00B3E
(1644168869.694068) can1 006#7CD920BD00000000
(1644168869.699131) can1 003#7128503CF85551BE
(1644168869.699845) can1 004#ACC7DCBC00000000
(1644168869.701408) can1 005#35FA8E3B1FC9293E
(1644168869.702175) can1 006#C4DE63BD00000000
(1644168869.705766) can1 003#508D473C493650BE
(1644168869.706442) can1 004#E843DBBC00000000
(1644168869.708646) can1 005#35FA8E3B1FC9293E
(1644168869.709190) can1 006#C4DE63BD00000000
(1644168869.715002) can1 003#4300393CBBF54DBE
(1644168869.715534) can1 004#4A66DBBC00000000
(1644168869.718419) can1 005#35FA0EBBC34B4B3E
(1644168869.719052) can1 006#939D9EBD00000000
(1644168869.724170) can1 003#EF2A283C2C764BBE
(1644168869.724771) can1 004#BF6BDABC00000000
(1644168869.727705) can1 005#C2B832BC510A6F3E
(1644168869.728364) can1 006#205CC2BD00000000
(1644168869.731791) can1 003#84D71B3C62F749BE
(1644168869.732445) can1 004#B4BDDABC00000000
(1644168869.735526) can1 005#7CD9A0BC7B46883E
(1644168869.735806) can1 006#9656E8BD00000000
(1644168869.741935) can1 003#3107053C88F946BE
(1644168869.742591) can1 004#3F7EDABC00000000
(1644168869.744285) can1 005#66A8BBBCE4CB963E
(1644168869.744892) can1 006#9DEC04BE00000000
(1644168869.750549) can1 003#A29AD83B519943BE
(1644168869.752038) can1 004#082BDBBC00000000
(1644168869.752819) can1 005#63820ABD3CFEA63E
(1644168869.753395) can1 006#C1251ABE00000000
(1644168869.758588) can1 003#35949E3B74FA3FBE
(1644168869.759153) can1 004#32ACDABC00000000
(1644168869.760880) can1 005#C2B832BD8EBFB73E
(1644168869.761441) can1 006#13E72ABE00000000
(1644168869.765030) can1 003#07EF7B3B23DD3DBE
(1644168869.765548) can1 004#5EDEDBBC00000000
(1644168869.768669) can1 005#C2B832BD8EBFB73E
(1644168869.769219) can1 006#13E72ABE00000000
(1644168869.774429) can1 003#C76EF03A7BDF39BE
(1644168869.775052) can1 004#CB46DCBC00000000
(1644168869.778039) can1 005#943037BDD59EC93E
(1644168869.778685) can1 006#43023FBE00000000
(1644168869.782097) can1 003#1DB4383ACBBF37BE
(1644168869.782765) can1 004#C267DCBC00000000
(1644168869.785593) can1 005#DB0F49BD38B3D83E
(1644168869.786354) can1 006#95C34FBE00000000
(1644168869.792498) can1 003#1F42DBBA440433BE
(1644168869.793091) can1 004#EBA7DDBC00000000
(1644168869.794785) can1 005#F3665FBDAD1AE63E
(1644168869.795323) can1 006#E78460BE00000000
(1644168869.802311) can1 003#96DF80BB18882EBE
(1644168869.802902) can1 004#1612DEBC00000000
(1644168869.804640) can1 005#68CE6CBD34D5F13E
(1644168869.805209) can1 006#5CEC6DBE00000000
(1644168869.811421) can1 003#B9FBDABB4B6E29BE
(1644168869.812202) can1 004#9540DFBC00000000
(1644168869.815048) can1 005#0BBE75BDB41EFE3E
(1644168869.815743) can1 006#C09281BE00000000
(1644168869.821872) can1 003#4C5C1ABCAD5424BE
(1644168869.822515) can1 004#6B8EE1BC00000000
(1644168869.825036) can1 005#A9CE83BDAF3F033F
(1644168869.825706) can1 006#63828ABE00000000
(1644168869.831668) can1 003#0C6249BC07391FBE
(1644168869.831895) can1 004#D2DEE2BC00000000
(1644168869.834374) can1 005#C09281BD8C99063F
(1644168869.835006) can1 006#18C591BE00000000
(1644168869.841905) can1 003#EC757ABCAFE019BE
(1644168869.842587) can1 004#A540E4BC00000000
(1644168869.844274) can1 005#920A86BDF21C093F
(1644168869.844868) can1 006#BBB49ABE00000000
(1644168869.850695) can1 003#71CD98BC2C6C14BE
(1644168869.852237) can1 004#9590E5BC00000000
(1644168869.852967) can1 005#1E3691BD69F3093F
(1644168869.853520) can1 006#70F7A1BE00000000
(1644168869.858686) can1 003#A053B4BC42350FBE
(1644168869.859232) can1 004#ABFDE6BC00000000
(1644168869.860984) can1 005#1E3691BD58A00B3F
(1644168869.861527) can1 006#253AA9BE00000000
(1644168869.865380) can1 003#1C98C3BCD7390CBE
(1644168869.866142) can1 004#AF2EE8BC00000000
(1644168869.869056) can1 005#1E3691BD58A00B3F
(1644168869.869593) can1 006#253AA9BE00000000
(1644168869.876832) can1 003#021EE0BCE30507BE
(1644168869.877364) can1 004#41C6E9BC00000000
(1644168869.879892) can1 005#AA619CBDD5E70B3F
(1644168869.880527) can1 006#F6B1ADBE00000000
(1644168869.886973) can1 003#0B91FCBC87D201BE
(1644168869.887516) can1 004#7984ECBC00000000
(1644168869.890313) can1 005#D8E997BDDB580B3F
(1644168869.890894) can1 006#C2B8B2BE00000000
(1644168869.897001) can1 003#338B0CBD01FEF8BD
(1644168869.897688) can1 004#566AEEBC00000000
(1644168869.899805) can1 005#4D51A5BD63820A3F
(1644168869.900009) can1 006#9AA1B6BE00000000
(1644168869.905345) can1 003#9EC61BBD455AEEBD
(1644168869.906036) can1 004#4259F1BC00000000
(1644168869.907755) can1 005#939D9EBDE63A0A3F
(1644168869.908468) can1 006#83DDB8BE00000000
(1644168869.913406) can1 003#D6FF2ABD2EF7E3BD
(1644168869.914157) can1 004#546BF4BC00000000
(1644168869.917143) can1 005#7CD9A0BDF21C093F
(1644168869.917766) can1 006#6037BCBE00000000
(1644168869.921114) can1 003#179E32BD1386DEBD
(1644168869.921824) can1 004#7E08F6BC00000000
(1644168869.923951) can1 005#4D51A5BD8628073F
(1644168869.924160) can1 006#4973BEBE00000000
(1644168869.929661) can1 003#475A42BD8C28D4BD
(1644168869.929869) can1 004#1D4CF9BC00000000
(1644168869.931431) can1 005#4D51A5BD15C3053F
(1644168869.932191) can1 006#6037BCBE00000000
(1644168869.936037) can1 003#B1F649BDF8F7CEBD
(1644168869.936305) can1 004#E201FBBC00000000
(1644168869.939016) can1 005#4D51A5BD15C3053F
(1644168869.939589) can1 006#6037BCBE00000000
(1644168869.945894) can1 003#562E58BDAC18C5BD
(1644168869.946112) can1 004#289AFEBC00000000
(1644168869.947763) can1 005#368DA7BDA35D043F
(1644168869.948423) can1 006#718ABABE00000000
(1644168869.953451) can1 003#CBE866BD31FBBABD
(1644168869.954146) can1 004#392801BD00000000
(1644168869.955848) can1 005#1FC9A9BDB4B0023F
(1644168869.956522) can1 006#718ABABE00000000
(1644168869.960384) can1 003#97FD6DBDA30CB6BD
(1644168869.960935) can1 004#299D02BD00000000
(1644168869.962661) can1 005#F140AEBD3DDA013F
(1644168869.963203) can1 006#9AA1B6BE00000000
(1644168869.968430) can1 003#BBBA7BBD6A31ACBD
(1644168869.969060) can1 004#A29C04BD00000000
(1644168869.971015) can1 005#F140AEBD3DDA013F
(1644168869.971647) can1 006#9AA1B6BE00000000
(1644168869.975136) can1 003#F46B81BDF901A7BD
(1644168869.975792) can1 004#11A205BD00000000
(1644168869.978508) can1 005#C2B8B2BDAEADFE3E
(1644168869.980037) can1 006#0294ACBE00000000
(1644168869.984242) can1 003#50CA87BDDA659DBD
(1644168869.984873) can1 004#EDC007BD00000000
(1644168869.988034) can1 005#D97CB0BDCC74003F
(1644168869.988266) can1 006#2BABA8BE00000000
(1644168869.991538) can1 003#ADD78ABD7CF797BD
(1644168869.992319) can1 004#566109BD00000000
(1644168869.993988) can1 005#1FC9A9BD434B013F
(1644168869.994634) can1 006#8D2C9FBE00000000
(1644168869.999714) can1 003#717990BD66578EBD
(1644168870.000384) can1 004#B6240BBD00000000
(1644168870.002018) can1 005#D8E997BD3DDA013F
(1644168870.002664) can1 006#24A790BE00000000
(1644168870.007773) can1 003#8B9B95BDCE3384BD
(1644168870.008442) can1 004#2F050DBD00000000
(1644168870.010905) can1 005#D8E997BD3DDA013F
(1644168870.011467) can1 006#24A790BE00000000
(1644168870.015583) can1 003#AC7198BDC0067DBD
(1644168870.016275) can1 004#EEC20DBD00000000
(1644168870.019531) can1 005#35FA8EBDB4B0023F
(1644168870.019904) can1 006#920A86BE00000000
(1644168870.025578) can1 003#A4D69CBD90B668BD
(1644168870.026267) can1 004#95420FBD00000000
(1644168870.029681) can1 005#AEAD7EBD20A5043F
(1644168870.029897) can1 006#394671BE00000000
(1644168870.034925) can1 003#A87EA0BD966454BD
(1644168870.035492) can1 004#A2D910BD00000000
(1644168870.038535) can1 005#21EF5ABD1A34053F
(1644168870.040038) can1 006#7EFF51BE00000000
(1644168870.044356) can1 003#87A6A3BD940640BD
(1644168870.044977) can1 004#F0FD11BD00000000
(1644168870.046635) can1 005#66A83BBD920A063F
(1644168870.047782) can1 006#E55E2FBE00000000
(1644168870.050723) can1 003#EFFDA4BD1B9A34BD
(1644168870.051287) can1 004#D9E312BD00000000
(1644168870.053009) can1 005#7CD920BD15C3053F
(1644168870.053578) can1 006#077213BE00000000
(1644168870.058762) can1 003#5028A7BDD8B620BD
(1644168870.060036) can1 004#731B14BD00000000
(1644168870.061239) can1 005#7CD920BD15C3053F
(1644168870.061946) can1 006#077213BE00000000
(1644168870.065824) can1 003#22FFA7BD6B3E15BD
(1644168870.066481) can1 004#238914BD00000000
(1644168870.069329) can1 005#077213BD15C3053F
(1644168870.069983) can1 006#DCA2E1BD00000000
(1644168870.076071) can1 003#D62CA9BD68CD00BD
(1644168870.076258) can1 004#725615BD00000000
(1644168870.079114) can1 005#920A06BD20A5043F
(1644168870.079824) can1 006#1E3691BD00000000
(1644168870.085494) can1 003#3694A9BDE9B0DBBC
(1644168870.086266) can1 004#F09916BD00000000
(1644168870.089106) can1 005#DD35FABCAF3F033F
(1644168870.089823) can1 006#4D5125BD00000000
(1644168870.096398) can1 003#2282A9BD9DB7B3BC
(1644168870.097015) can1 004#536E17BD00000000
(1644168870.098636) can1 005#F366DFBCC603013F
(1644168870.100036) can1 006#DD35FABB00000000
(1644168870.104369) can1 003#8CADA8BD9BA28CBC
(1644168870.105003) can1 004#A1BE17BD00000000
(1644168870.106739) can1 005#7CD9A0BCB41EFE3E
(1644168870.108037) can1 006#3946F13C00000000
(1644168870.111124) can1 003#3206A8BDA1346FBC
(1644168870.111794) can1 004#033018BD00000000
(1644168870.113346) can1 005#920A86BC054DF63E
(1644168870.114012) can1 006#0BBE753D00000000
(1644168870.119387) can1 003#5731A6BD64E726BC
(1644168870.120149) can1 004#A47218BD00000000
(1644168870.122397) can1 005#920A86BC054DF63E
(1644168870.123011) can1 006#0BBE753D00000000
(1644168870.126495) can1 003#B845A5BD08B400BC
(1644168870.127144) can1 004#425518BD00000000
(1644168870.129875) can1 005#DD35FABB625DED3E
(1644168870.130501) can1 006#D97CB03D00000000
(1644168870.137301) can1 003#E16DA2BD56A978BB
(1644168870.138036) can1 004#C90318BD00000000
(1644168870.140993) can1 005#00000000C4DEE33E
(1644168870.141577) can1 006#3946F13D00000000
(1644168870.146830) can1 003#36529FBD0C931A39
(1644168870.148037) can1 004#1FA517BD00000000
(1644168870.149149) can1 005#35FA8E3B2DD1D93E
(1644168870.149764) can1 006#E4CB163E00000000
(1644168870.155522) can1 003#94B69BBDAA477C3B
(1644168870.156282) can1 004#7C3817BD00000000
(1644168870.157923) can1 005#35FA0E3CC34BCB3E
(1644168870.158560) can1 006#B7D6333E00000000
(1644168870.163579) can1 003#145697BD03ABEF3B
(1644168870.164323) can1 004#F7B716BD00000000
(1644168870.165923) can1 005#C2B8323C6037BC3E
(1644168870.166598) can1 006#A1A54E3E00000000
(1644168870.170436) can1 003#05A794BD8F4A143C
(1644168870.171092) can1 004#FF7416BD00000000
(1644168870.173010) can1 005#0998443CF6B1AD3E
(1644168870.173569) can1 006#9656683E00000000
(1644168870.177104) can1 003#EC7192BD7AAB2A3C
(1644168870.177746) can1 004#B62016BD00000000
(1644168870.180475) can1 005#0998443CF6B1AD3E
(1644168870.181150) can1 006#9656683E00000000
(1644168870.187765) can1 003#AD0E8DBDC9955B3C
(1644168870.187882) can1 004#107E15BD00000000
(1644168870.190895) can1 005#5077563C87BB9F3E
(1644168870.192036) can1 006#BA21823E00000000
(1644168870.197578) can1 003#2CE686BDB154843C
(1644168870.198316) can1 004#7F4514BD00000000
(1644168870.199979) can1 005#5077563C24A7903E
(1644168870.200631) can1 006#18C5913E00000000
(1644168870.206125) can1 003#517A80BD85D9973C
(1644168870.206743) can1 004#F07613BD00000000
(1644168870.208397) can1 005#5077563C920A863E
(1644168870.209045) can1 006#8D2C9F3E00000000
(1644168870.214145) can1 003#C19B72BDA96DA93C
(1644168870.214790) can1 004#6F9712BD00000000
(1644168870.216433) can1 005#920A863C510A6F3E
(1644168870.217043) can1 006#0294AC3E00000000
(1644168870.220554) can1 003#10AA6BBD64B2B13C
(1644168870.221127) can1 004#342112BD00000000
(1644168870.223875) can1 005#920A863C510A6F3E
(1644168870.224059) can1 006#0294AC3E00000000
(1644168870.229082) can1 003#3FC45BBDBA56C03C
(1644168870.229815) can1 004#FCA410BD00000000
(1644168870.232803) can1 005#C2B8B23C721D533E
(1644168870.233352) can1 006#9430B73E00000000
(1644168870.236876) can1 003#055253BD25B1C73C
(1644168870.238036) can1 004#CFA30FBD00000000
(1644168870.240503) can1 005#0998C43CABF4343E
(1644168870.242038) can1 006#0998C43E00000000
(1644168870.247566) can1 003#9D6242BD3460D33C
(1644168870.248308) can1 004#20900DBD00000000
(1644168870.249971) can1 005#63820A3D9E7F1D3E
(1644168870.250601) can1 006#95C3CF3E00000000
(1644168870.257356) can1 003#D0F030BDCB12DD3C
(1644168870.258064) can1 004#32710BBD00000000
(1644168870.259734) can1 005#AA611C3D920A063E
(1644168870.260392) can1 006#160DDC3E00000000
(1644168870.265765) can1 003#F8761EBD5BC6E43C
(1644168870.266441) can1 004#324209BD00000000
(1644168870.268065) can1 005#1FC9293DF366DF3D
(1644168870.268713) can1 006#9CC7E73E00000000
(1644168870.273822) can1 003#85FA0ABD747DEB3C
(1644168870.274474) can1 004#F10807BD00000000
(1644168870.276151) can1 005#7CD9203DF140AE3D
(1644168870.276765) can1 006#3946F13E00000000
(1644168870.280230) can1 003#2EFD00BDE3DAEE3C
(1644168870.280843) can1 004#EDEA05BD00000000
(1644168870.283559) can1 005#7CD9203DF140AE3D
(1644168870.284238) can1 006#3946F13E00000000
(1644168870.290005) can1 003#98F3D9BC248EF23C
(1644168870.290077) can1 004#6DA403BD00000000
(1644168870.293078) can1 005#4D51253DA9CE833D
(1644168870.293809) can1 006#C671FC3E00000000
(1644168870.297167) can1 003#96EFC2BCEAF3F33C
(1644168870.297873) can1 004#EB7A02BD00000000
(1644168870.300060) can1 005#7CD9203D3720403D
(1644168870.300243) can1 006#3769023F00000000
(1644168870.305989) can1 003#CDE299BC52A6F53C
(1644168870.306625) can1 004#AD2E00BD00000000
(1644168870.308307) can1 005#1FC9293DC2B8B23C
(1644168870.308947) can1 006#920A063F00000000
(1644168870.314037) can1 003#A7965DBC1257F53C
(1644168870.314726) can1 004#6CB3FBBC00000000
(1644168870.316377) can1 005#F1402E3D35FA8E3A
(1644168870.317005) can1 006#F21C093F00000000
(1644168870.320908) can1 003#577D31BCFCB0F43C
(1644168870.321460) can1 004#FB5DF9BC00000000
(1644168870.323884) can1 005#F1402E3D35FA8E3A
(1644168870.324572) can1 006#F21C093F00000000
(1644168870.329560) can1 003#5485AEBBE163F23C
(1644168870.330316) can1 004#E4AFF4BC00000000
(1644168870.333663) can1 005#4D51253DC2B8B2BC
(1644168870.333892) can1 006#DB580B3F00000000
(1644168870.337747) can1 003#DB6724BBD1BCEF3C
(1644168870.337878) can1 004#9B57F2BC00000000
(1644168870.340674) can1 005#0998443D7CD920BD
(1644168870.341217) can1 006#C3940D3F00000000
(1644168870.348172) can1 003#B2B7343BC45AEB3C
(1644168870.348773) can1 004#CBB3EDBC00000000
(1644168870.350432) can1 005#66A83B3DC09281BD
(1644168870.351037) can1 006#35FA0E3F00000000
(1644168870.358064) can1 003#F4900D3C7B07E43C
(1644168870.358724) can1 004#B00AE8BC00000000
(1644168870.360380) can1 005#9430373D1FC9A9BD
(1644168870.361006) can1 006#ACD00F3F00000000
(1644168870.367750) can1 003#AAF7673C0FA3DA3C
(1644168870.368467) can1 004#AA7AE3BC00000000
(1644168870.370835) can1 005#F1402E3D7EFFD1BD
(1644168870.372036) can1 006#A75F103F00000000
(1644168870.378050) can1 003#2A339F3CBA34D03C
(1644168870.378675) can1 004#7D04DFBC00000000
(1644168870.381535) can1 005#0772133D862807BE
(1644168870.382246) can1 006#24A7103F00000000
(1644168870.388377) can1 003#B36DCD3C81CAC23C
(1644168870.389001) can1 004#1799DBBC00000000
(1644168870.391966) can1 005#D8E9173DAA611CBE
(1644168870.392610) can1 006#ACD00F3F00000000
(1644168870.398427) can1 003#2CA9F83CA051B43C
(1644168870.399036) can1 004#AC4DD8BC00000000
(1644168870.400727) can1 005#63820A3DCE9A31BE
(1644168870.401275) can1 006#3B6B0E3F00000000
(1644168870.408238) can1 003#FA74113DFED3A43C
(1644168870.408850) can1 004#5720D5BC00000000
(1644168870.410510) can1 005#35FA0E3DDB0F49BE
(1644168870.411128) can1 006#D5E70B3F00000000
(1644168870.416286) can1 003#8D18273D3353913C
(1644168870.416893) can1 004#9916D2BC00000000
(1644168870.418585) can1 005#920A063DE78460BE
(1644168870.419086) can1 006#F21C093F00000000
(1644168870.424337) can1 003#01BC3A3DEB877D3C
(1644168870.424953) can1 004#DF2CCFBC00000000
(1644168870.426618) can1 005#9656E83C00DC76BE
(1644168870.427163) can1 006#8C99063F00000000
(1644168870.430720) can1 003#534F453D2B04663C
(1644168870.431255) can1 004#6A4BCEBC00000000
(1644168870.434205) can1 005#9656E83C00DC76BE
(1644168871.125049) can1 003#4406D7BDF62479BE
(1644168871.125745) can1 004#6542B3BC00000000
(1644168871.128647) can1 005#D8E917BD7D6CB93E
(1644168871.129502) can1 006#9656E8BD00000000
(1644168871.132681) can1 003#040AD8BD7F0277BE
(1644168871.134046) can1 004#43A4B3BC00000000
(1644168871.135101) can1 005#920A06BDC9BCCA3E
(1644168871.135669) can1 006#4EE4BDBD00000000
(1644168871.140632) can1 003#E086D9BDF7BE72BE
(1644168871.141439) can1 004#2DB2B5BC00000000
(1644168871.143056) can1 005#63820ABD21EFDA3E
(1644168871.143652) can1 006#35FA8EBD00000000
(1644168871.147846) can1 003#EC08DABD0D3D70BE
(1644168871.148126) can1 004#8280B6BC00000000
(1644168871.150805) can1 005#63820ABD21EFDA3E
(1644168871.151332) can1 006#35FA8EBD00000000
(1644168871.156925) can1 003#8A0CDBBDAC786BBE
(1644168871.157463) can1 004#8305B8BC00000000
(1644168871.159155) can1 005#D8E917BD8B74E93E
(1644168871.159889) can1 006#F3665FBD00000000
(1644168871.164963) can1 003#FA8ADBBD999066BE
(1644168871.165500) can1 004#9DD6B9BC00000000
(1644168871.167197) can1 005#C09201BD112FF53E
(1644168871.167925) can1 006#4D5125BD00000000
(1644168871.171442) can1 003#2C8CDBBD12AF63BE
(1644168871.172070) can1 004#A10DBBBC00000000
(1644168871.173709) can1 005#920A06BD3769023F
(1644168871.174360) can1 006#1FC9A9BC00000000
(1644168871.177818) can1 003#258CDBBD8B4C61BE
(1644168871.178450) can1 004#EF0DBCBC00000000
(1644168871.181901) can1 005#920A06BD3769023F
(1644168871.182081) can1 006#1FC9A9BC00000000
(1644168871.188987) can1 003#1D48DBBD79625BBE
(1644168871.190039) can1 004#EAA1BEBC00000000
(1644168871.192054) can1 005#9656E8BC6F64093F
(1644168871.192695) can1 006#35FA8EBA00000000
(1644168871.198820) can1 003#9D86DABD837B55BE
(1644168871.199373) can1 004#B56BC1BC00000000
(1644168871.202225) can1 005#AC87CDBC2918103F
(1644168871.202881) can1 006#D8E9973C00000000
(1644168871.208990) can1 003#3B8ED9BD46F54FBE
(1644168871.209645) can1 004#3F20C3BC00000000
(1644168871.211209) can1 005#5077D6BCEFAD153F
(1644168871.211914) can1 006#0772133D00000000
(1644168871.218833) can1 003#C74BD8BD638B49BE
(1644168871.219370) can1 004#7E46C6BC00000000
(1644168871.221051) can1 005#66A8BBBC38FC1A3F
(1644168871.221771) can1 006#68CE6C3D00000000
(1644168871.234783) can1 003#F293D6BDEBE242BE
(1644168871.234808) can1 004#99AEC8BC00000000
(1644168871.234813) can1 005#7CD9A0BC7668213F
(1644168871.234818) can1 006#0772933D00000000
(1644168871.237761) can1 003#E551D4BD21783CBE
(1644168871.238478) can1 004#1721CCBC00000000
(1644168871.241539) can1 005#D8E997BCD009253F
(1644168871.242110) can1 006#9430B73D00000000
(1644168871.247108) can1 003#951CD2BD26AF35BE
(1644168871.247797) can1 004#1BAACEBC00000000
(1644168871.250763) can1 005#920A86BC9C102A3F
(1644168871.252066) can1 006#C4DEE33D00000000
(1644168871.257163) can1 003#AC27CFBD63C52EBE
(1644168871.257841) can1 004#DF72D1BC00000000
(1644168871.259436) can1 005#35FA8EBC68172F3F
(1644168871.260178) can1 006#8628073E00000000
(1644168871.265188) can1 003#D1F2CBBDF67827BE
(1644168871.265772) can1 004#025FD4BC00000000
(1644168871.267438) can1 005#507756BCB7D6333F
(1644168871.268233) can1 006#B6431B3E00000000
(1644168871.271800) can1 003#A2F7C9BD817323BE
(1644168871.272443) can1 004#9B91D6BC00000000
(1644168871.274102) can1 005#965668BC83DD383F
(1644168871.274697) can1 006#CE9A313E00000000
(1644168871.279800) can1 003#2B08C6BD94281CBE
(1644168871.280464) can1 004#D594D9BC00000000
(1644168871.282814) can1 005#965668BC83DD383F
(1644168871.283375) can1 006#CE9A313E00000000
(1644168871.287013) can1 003#3F93C3BDD52018BE
(1644168871.287577) can1 004#10D4DABC00000000
(1644168871.290374) can1 005#C2B832BC4EE43D3F
(1644168871.290985) can1 006#C34B4B3E00000000
(1644168871.296038) can1 003#AD26BFBDF4D410BE
(1644168871.296690) can1 004#E0CCDDBC00000000
(1644168871.299324) can1 005#DD35FABBA985413F
(1644168871.300087) can1 006#E784603E00000000
(1644168871.303968) can1 003#13B3BCBD00ED0CBE
(1644168871.304231) can1 004#DDE3DEBC00000000
(1644168871.305858) can1 005#0000000086DF443F
(1644168871.306468) can1 006#F4F9773E00000000
(1644168871.312324) can1 003#01D2B6BD3E9E04BE
(1644168871.312949) can1 004#DF67E1BC00000000
(1644168871.314621) can1 005#35FA8E3A6339483F
(1644168871.315160) can1 006#63828A3E00000000
(1644168871.320549) can1 003#B42BB1BDAE20FABD
(1644168871.322036) can1 004#F469E4BC00000000
(1644168871.323036) can1 005#35FA8E3A6339483F
(1644168871.323729) can1 006#63828A3E00000000
(1644168871.327051) can1 003#31BDADBD6E4EF1BD
(1644168871.327775) can1 004#8EB4E5BC00000000
(1644168871.330769) can1 005#35FA0E3B52E6493F
(1644168871.332035) can1 006#D378983E00000000
(1644168871.337622) can1 003#6BE2A6BDD66FE1BD
(1644168871.337774) can1 004#C5D9E7BC00000000
(1644168871.340725) can1 005#C2B8B23BB8694C3F
(1644168871.341304) can1 006#3CFEA63E00000000
(1644168871.346844) can1 003#FD05A0BDEA0CD2BD
(1644168871.348044) can1 004#0BB1E9BC00000000
(1644168871.350425) can1 005#C2B8323CB2F84C3F
(1644168871.351009) can1 006#BC47B33E00000000
(1644168871.356188) can1 003#083098BD34EAC1BD
(1644168871.356845) can1 004#9CA3EBBC00000000
(1644168871.358503) can1 005#7CD9203CAC874D3F
(1644168871.359097) can1 006#3720C03E00000000
(1644168871.364884) can1 003#2ADC8FBD44C5B1BD
(1644168871.365453) can1 004#E96CEDBC00000000
(1644168871.367725) can1 005#C2B8323C35B14C3F
(1644168871.367883) can1 006#B2F8CC3E00000000
(1644168871.371397) can1 003#43B28BBD87F2A9BD
(1644168871.372059) can1 004#8E2FEEBC00000000
(1644168871.374016) can1 005#0998443C4C754A3F
(1644168871.374594) can1 006#38B3D83E00000000
(1644168871.378118) can1 003#610A87BD359EA1BD
(1644168871.378753) can1 004#FB06EFBC00000000
(1644168871.381679) can1 005#0998443C4C754A3F
(1644168871.382323) can1 006#38B3D83E00000000
(1644168871.388777) can1 003#CD717BBDFDF491BD
(1644168871.389318) can1 004#5A5CF0BC00000000
(1644168871.392176) can1 005#C2B8323C5DC8483F
(1644168871.392774) can1 006#BF6DE43E00000000
(1644168871.398943) can1 003#374D69BD431083BD
(1644168871.399482) can1 004#6B4EF2BC00000000
(1644168871.402263) can1 005#C2B8323CFDB5453F
(1644168871.402936) can1 006#4528F03E00000000
(1644168871.409042) can1 003#E7AF55BD614D68BD
(1644168871.409774) can1 004#8312F3BC00000000
(1644168871.411328) can1 005#C2B8323CAFF6403F
(1644168871.412052) can1 006#F4F9F73E00000000
(1644168871.418896) can1 003#AC0F42BD06004CBD
(1644168871.419448) can1 004#2F7FF4BC00000000
(1644168871.421110) can1 005#35FA0E3C66A83B3F
(1644168871.421826) can1 006#4F2D003F00000000
(1644168871.428821) can1 003#BC752CBDD6A42EBD
(1644168871.429376) can1 004#5CC3F4BC00000000
(1644168871.432396) can1 005#5077563C9F12363F
(1644168871.433034) can1 006#32F8023F00000000
(1644168871.438554) can1 003#4BD517BD025014BD
(1644168871.440038) can1 004#A596F4BC00000000
(1644168871.441939) can1 005#DD357A3C62A62F3F
(1644168871.442499) can1 006#920A063F00000000
(1644168871.448730) can1 003#1FB602BD35F7F4BC
(1644168871.449266) can1 004#A129F4BC00000000
(1644168871.452060) can1 005#35FA8E3CA281293F
(1644168871.452757) can1 006#75D5083F00000000
(1644168871.457829) can1 003#BB1FDBBC104BC4BC
(1644168871.458490) can1 004#806AF3BC00000000
(1644168871.460168) can1 005#7CD9A03CED3E223F
(1644168871.460787) can1 006#DB580B3F00000000
(1644168871.464238) can1 003#0D7DC4BCF0F2ABBC
(1644168871.464846) can1 004#B0FAF2BC00000000
(1644168871.466522) can1 005#7CD9A03CB0D21B3F
(1644168871.467069) can1 006#522F0C3F00000000
(1644168871.473181) can1 003#D3289ABC72977CBC
(1644168871.473891) can1 004#9AD6F1BC00000000
(1644168871.475455) can1 005#7CD9A03C0772133F
(1644168871.476227) can1 006#41DC0D3F00000000
(1644168871.482432) can1 003#A0915DBC3C4527BC
(1644168871.482994) can1 004#4E72F0BC00000000
(1644168871.485061) can1 005#7CD9A03C5E110B3F
(1644168871.485656) can1 006#41DC0D3F00000000
(1644168871.490817) can1 003#A5CA06BC27F3A7BB
(1644168871.491377) can1 004#EAD6EEBC00000000
(1644168871.494483) can1 005#7CD9A03C5E110B3F
(1644168871.495039) can1 006#41DC0D3F00000000
(1644168871.498564) can1 003#5AD2B2BBD03625BB
(1644168871.499129) can1 004#B9F4EDBC00000000
(1644168871.502238) can1 005#0998C43C2C87033F
(1644168871.502784) can1 006#CF760C3F00000000
(1644168871.509085) can1 003#73988FB952C2073B
(1644168871.509668) can1 004#D003EBBC00000000
(1644168871.511229) can1 005#F366DF3C054DF63E
(1644168871.511959) can1 006#5E110B3F00000000
(1644168871.518243) can1 003#C636913B2F14C63B
(1644168871.518844) can1 004#31E7E7BC00000000
(1644168871.520521) can1 005#C092013D9656E83E
(1644168871.521075) can1 006#F21C093F00000000
(1644168871.526303) can1 003#0DBA1B3C0831243C
(1644168871.526914) can1 004#759FE4BC00000000
(1644168871.528585) can1 005#35FA0E3D5077D63E
(1644168871.529132) can1 006#977B053F00000000
(1644168871.532669) can1 003#9854433C86B8423C
(1644168871.533220) can1 004#CC6EE2BC00000000
(1644168871.535406) can1 005#35FA0E3D5077D63E
(1644168871.536173) can1 006#977B053F00000000
(1644168871.541232) can1 003#8452863C65B2793C
(1644168871.541945) can1 004#E300DFBC00000000
(1644168871.544689) can1 005#AA611C3DE6F1C73E
(1644168871.546037) can1 006#3DDA013F00000000
(1644168871.548771) can1 003#5A269A3C33198B3C
(1644168871.549321) can1 004#E1B7DCBC00000000
(1644168871.552302) can1 005#AA611C3DA583B53E
(1644168871.552973) can1 006#CBE2FB3E00000000
(1644168871.559179) can1 003#39DFBD3C5A8AA23C
(1644168871.559899) can1 004#AC24D9BC00000000
(1644168871.561436) can1 005#AA611C3D53C2A43E
(1644168871.562230) can1 006#3FB7F03E00000000
(1644168871.568921) can1 003#95A7DE3CC1ECB73C
(1644168871.569617) can1 004#588AD4BC00000000
(1644168871.571197) can1 005#1FC9293D0772933E
(1644168871.571928) can1 006#A238E73E00000000
(1644168871.577078) can1 003#1077FE3C834BCB3C
(1644168871.577665) can1 004#20E5D0BC00000000
(1644168871.579223) can1 005#1FC9293DB4B0823E
(1644168871.579927) can1 006#1B7EDB3E00000000
(1644168871.585703) can1 003#04A90D3DB495DB3C
(1644168871.586293) can1 004#2941CCBC00000000
(1644168871.587994) can1 005#AA611C3DB9FC643E
(1644168871.588655) can1 006#BEDACB3E00000000
(1644168871.592299) can1 003#7922153D41BEE33C
(1644168871.592911) can1 004#F7EAC9BC00000000
(1644168871.595557) can1 005#AA611C3DB9FC643E
(1644168871.596272) can1 006#BEDACB3E00000000
(1644168871.602094) can1 003#4B96213D14F6F03C
(1644168871.602704) can1 004#514FC5BC00000000
(1644168871.605770) can1 005#AA611C3DE6F1473E
(1644168871.606430) can1 006#4302BF3E00000000
(1644168871.612177) can1 003#920E2D3DC92DFC3C
(1644168871.612832) can1 004#2ABFC1BC00000000
(1644168871.614534) can1 005#9430373DD97C303E
(1644168871.615072) can1 006#DFEDAF3E00000000
(1644168871.620303) can1 003#D389373DD7A9023D
(1644168871.620923) can1 004#BD37BDBC00000000
(1644168871.622550) can1 005#1FC9293D1254123E
(1644168871.623364) can1 006#9E7F9D3E00000000
(1644168871.627020) can1 003#C2873C3D0537053D
(1644168871.627746) can1 004#D5F3BBBC00000000
(1644168871.629310) can1 005#4D51253DF4F9F73D
(1644168871.630071) can1 006#464D8D3E00000000
(1644168871.635040) can1 003#8384443D22C4083D
(1644168871.635794) can1 004#6285B8BC00000000
(1644168871.637388) can1 005#63820A3D7EFFD13D
(1644168871.638141) can1 006#CC74803E00000000
(1644168871.641958) can1 003#9A82483DEF4B0A3D
(1644168871.642543) can1 004#F34FB7BC00000000
(1644168871.645446) can1 005#63820A3D7EFFD13D
(1644168871.646226) can1 006#CC74803E00000000
(1644168871.651848) can1 003#B2054F3D14D60C3D
(1644168871.652516) can1 004#66F9B3BC00000000
(1644168871.655382) can1 005#35FA0E3D368DA73D
(1644168871.656144) can1 006#160D5C3E00000000
(1644168871.661130) can1 003#EF04543DB7DC0E3D
(1644168871.661838) can1 004#4EB2B1BC00000000
(1644168871.663409) can1 005#DD35FA3C7B46883D
(1644168871.664173) can1 006#7D6C393E00000000
(1644168871.667609) can1 003#9984563DE4DF0F3D
(1644168871.668259) can1 004#498EB0BC00000000
(1644168871.669920) can1 005#9656E83CDB0F493D
(1644168871.670489) can1 006#D8E9173E00000000
(1644168871.675641) can1 003#4D84593D48E4103D
(1644168871.676294) can1 004#5B65AFBC00000000
(1644168871.677920) can1 005#66A8BB3CAA611C3D
(1644168871.678582) can1 006#510AEF3D00000000
(1644168871.682473) can1 003#4F855A3D6F63113D
(1644168871.683019) can1 004#5C55AEBC00000000
(1644168871.686036) can1 005#66A8BB3CAA611C3D
(1644168871.686690) can1 006#510AEF3D00000000
(1644168871.692552) can1 003#70075C3D93E9113D
(1644168871.694037) can1 004#4743AEBC00000000
(1644168871.696216) can1 005#1FC9A93C66A8BB3C
(1644168871.696863) can1 006#0805AC3D00000000
(1644168871.703834) can1 003#70075C3D93E9113D
(1644168871.704454) can1 004#4743AEBC00000000
(1644168871.706962) can1 005#DD35FA3BDD35FA3B
(1644168871.707544) can1 006#AC874D3D00000000
(1644168871.713036) can1 003#51045B3D35E8103D
(1644168871.713735) can1 004#8D57AFBC00000000
(1644168871.715886) can1 005#35FA0E3B35FA0EBB
(1644168871.716063) can1 006#7CD9A03C00000000
(1644168871.721043) can1 003#A184583D2AE50F3D
(1644168871.721808) can1 004#027CB0BC00000000
(1644168871.723378) can1 005#35FA8EBCC09201BD
(1644168871.724142) can1 006#66A83BBD00000000
(1644168871.727464) can1 003#B482563DAFE60E3D
(1644168871.728243) can1 004#A09BB2BC00000000
(1644168871.729855) can1 005#1FC9A9BC099844BD
(1644168871.730516) can1 006#6415A3BD00000000
(1644168871.735543) can1 003#E004523D7F610C3D
(1644168871.736239) can1 004#16E5B4BC00000000
(1644168871.737897) can1 005#1FC9A9BC920A86BD
(1644168871.738515) can1 006#C4DEE3BD00000000
(1644168871.742034) can1 003#E8884F3DE8DA0A3D
(1644168871.742646) can1 004#B30EB5BC00000000
(1644168871.745491) can1 005#1FC9A9BC920A86BD
(1644168871.746259) can1 006#C4DEE3BD00000000
(1644168871.751240) can1 003#BD08493DD450073D
(1644168871.751972) can1 004#FB70B8BC00000000
(1644168871.754717) can1 005#66A8BBBC6415A3BD
(1644168871.755283) can1 006#E4CB16BE00000000
(1644168871.758810) can1 003#8A8D443DADC7043D
(1644168871.760036) can1 004#29B6B9BC00000000
(1644168871.761015) can1 005#5077D6BCAC87CDBD
(1644168871.761722) can1 006#7D6C39BE00000000
(1644168871.768167) can1 003#7B143C3D5868FF3C
(1644168871.768786) can1 004#5C35BCBC00000000
(1644168871.770412) can1 005#66A8BBBC0BBEF5BD
(1644168871.771037) can1 006#0A2B5DBE00000000
(1644168871.776166) can1 003#DB9C323DCF43F53C
(1644168871.776783) can1 004#D3B9BFBC00000000
(1644168871.778512) can1 005#66A8BBBC41DC0DBE
(1644168871.779072) can1 006#00DC76BE00000000
(1644168871.782805) can1 003#1DA52D3DBB2CEE3C
(1644168871.783348) can1 004#7A06C1BC00000000
(1644168871.786449) can1 005#66A8BBBC41DC0DBE
(1644168871.787037) can1 006#00DC76BE00000000
(1644168871.793274) can1 003#B1B1213DADF2DF3C
(1644168871.794045) can1 004#74A4C4BC00000000
(1644168871.797072) can1 005#F366DFBC368D27BE
(1644168871.797628) can1 006#58A08BBE00000000
(1644168871.804519) can1 003#E3C0153D31B6D03C
(1644168871.805056) can1 004#5A3CC8BC00000000
(1644168871.807846) can1 005#DD35FABC4EE43DBE
(1644168871.808498) can1 006#CD0799BE00000000
(1644168871.813936) can1 003#A2D9073D0D6EBD3C
(1644168871.814533) can1 004#0EE9CBBC00000000
(1644168871.816263) can1 005#C09201BD673B54BE
(1644168871.816892) can1 006#47E0A5BE00000000
(1644168871.822378) can1 003#CBDFF43CC922AB3C
(1644168871.823060) can1 004#517BCFBC00000000
(1644168871.824652) can1 005#35FA0EBD68CE6CBE
(1644168871.826036) can1 006#C829B2BE00000000
(1644168871.830402) can1 003#E818D63CEEC7953C
(1644168871.831010) can1 004#D011D3BC00000000
(1644168871.832761) can1 005#077213BDBA2182BE
(1644168871.834036) can1 006#4EE4BDBE00000000
(1644168871.837001) can1 003#0E3CC63C669A893C
(1644168871.837702) can1 004#AD5CD5BC00000000
(1644168871.839293) can1 005#077213BD58A08BBE
(1644168871.840034) can1 006#E6F1C7BE00000000
(1644168871.845786) can1 003#4783A73CD078643C
(1644168871.846442) can1 004#E9DBD8BC00000000
(1644168871.848394) can1 005#AA611CBDCD0799BE
(1644168871.849035) can1 006#95C3CFBE00000000
(1644168871.852832) can1 003#3DAD943C8AFF473C
(1644168871.853376) can1 004#2D1BDBBC00000000
(1644168871.856216) can1 005#AA611CBDCD0799BE
(1644168871.856855) can1 006#95C3CFBE00000000
(1644168871.863008) can1 003#B4FF673CDB2A153C
(1644168871.863717) can1 004#427CDEBC00000000
(1644168871.865294) can1 005#077213BD5FA4A3BE
(1644168871.866019) can1 006#4A06D7BE00000000
(1644168871.871728) can1 003#40BF243CF98FB83B
(1644168871.871903) can1 004#01C8E1BC00000000
(1644168871.873517) can1 005#D8E917BDDFEDAFBE
(1644168871.874254) can1 006#0A2BDDBE00000000
(1644168871.877950) can1 003#2A6CFE3B091B673B
(1644168871.878588) can1 004#A6E6E3BC00000000
(1644168871.880273) can1 005#7CD920BD6037BCBE
(1644168871.880901) can1 006#E784E0BE00000000
(1644168871.886203) can1 003#0E6F603B81B6E6B9
(1644168871.886825) can1 004#E204E7BC00000000
(1644168871.888788) can1 005#D8E917BDEC62C7BE
(1644168871.889340) can1 006#B9FCE4BE00000000
(1644168871.892868) can1 003#7F89B43A4ABC1EBB
(1644168871.894036) can1 004#C206E9BC00000000
(1644168871.896278) can1 005#D8E917BDEC62C7BE
(1644168871.896879) can1 006#B9FCE4BE00000000
(1644168871.902637) can1 003#B7E039BB135DD5BB
(1644168871.904035) can1 004#D5EFEBBC00000000
(1644168871.906267) can1 005#077213BD61CAD4BE
(1644168871.906902) can1 006#9656E8BE00000000
(1644168871.912652) can1 003#7FCAEABBF4BA33BC
(1644168871.913197) can1 004#B5B0EEBC00000000
(1644168871.914947) can1 005#D8E917BDE784E0BE
(1644168871.915534) can1 006#9CC7E7BE00000000
(1644168871.920644) can1 003#AB4B3CBC7ECD7EBC
(1644168871.921218) can1 004#6D4BF0BC00000000
(1644168871.922895) can1 005#920A06BD6E3FECBE
(1644168871.923591) can1 006#9CC7E7BE00000000
(1644168871.927374) can1 003#B29D61BC6CB095BC
(1644168871.928142) can1 004#F8FEF1BC00000000
(1644168871.929773) can1 005#920A06BD00DCF6BE
(1644168871.930440) can1 006#BF6DE4BE00000000
(1644168871.935403) can1 003#BC3892BC8235BDBC
(1644168871.936172) can1 004#525AF3BC00000000
(1644168871.938667) can1 005#920A06BD00DCF6BE
(1644168871.940039) can1 006#BF6DE4BE00000000
(1644168871.942764) can1 003#43E3A2BC6E79D2BC
(1644168871.943301) can1 004#EBF2F4BC00000000
(1644168871.946338) can1 005#9656E8BCCC7400BF
(1644168871.946996) can1 006#BF6DE4BE00000000
(1644168871.953342) can1 003#4F3CC3BCEAFFFCBC
(1644168871.954038) can1 004#AE0AF7BC00000000
(1644168871.957009) can1 005#3946F1BC15C305BF
(1644168871.957684) can1 006#F366DFBE00000000
(1644168871.964452) can1 003#558CE4BCF9C514BD
(1644168871.965015) can1 004#D5EBF8BC00000000
(1644168871.966770) can1 005#3946F1BC522F0CBF
(1644168871.967311) can1 006#38B3D8BE00000000
(1644168871.972863) can1 003#7CEC01BD6A892CBD
(1644168871.973415) can1 004#40A1F9BC00000000
(1644168871.975393) can1 005#3946F1BC24A710BF
(1644168871.975787) can1 006#788ED2BE00000000
(1644168871.980996) can1 003#FB8F10BDE5C843BD
(1644168871.981599) can1 004#5F35FBBC00000000
(1644168871.983177) can1 005#AC87CDBCFB8F14BF
(1644168871.983901) can1 006#C9BCCABE00000000
(1644168871.987712) can1 003#C05E18BDDCEA50BD
(1644168871.988359) can1 004#C15CFBBC00000000
(1644168871.990033) can1 005#C2B8B2BCD8E917BF
(1644168871.990643) can1 006#31AFC0BE00000000
(1644168871.995654) can1 003#278425BDCE2569BD
(1644168871.996369) can1 004#79BEFBBC00000000
(1644168871.999151) can1 005#C2B8B2BCD8E917BF
(1644168871.999888) can1 006#31AFC0BE00000000
(1644168872.003787) can1 003#22D72BBD6A4275BD
(1644168872.004020) can1 004#44E4FBBC00000000
(1644168872.006705) can1 005#1FC9A9BC338B1BBF
(1644168872.007263) can1 006#9AA1B6BE00000000
(1644168872.012826) can1 003#05F837BDBA7C87BD
(1644168872.013387) can1 004#BB0AFCBC00000000
(1644168872.015060) can1 005#D8E997BC939D1EBF
(1644168872.015779) can1 006#0E76ABBE00000000
(1644168872.020892) can1 003#0B2243BDF1D493BD
(1644168872.021417) can1 004#6D28FBBC00000000
(1644168872.023663) can1 005#35FA8EBC70F721BF
(1644168872.023778) can1 006#990E9EBE00000000
(1644168872.027215) can1 003#CD7148BD6EE39ABD
(1644168872.027941) can1 004#9E1DFBBC00000000
(1644168872.029894) can1 005#35FA8EBC70F721BF
(1644168872.030554) can1 006#990E9EBE00000000
(1644168872.035625) can1 003#D01652BD2A7AA7BD
(1644168872.036263) can1 004#5A20FBBC00000000
(1644168872.038983) can1 005#099844BCDCEB23BF
(1644168872.039696) can1 006#125492BE00000000
(1644168872.043236) can1 003#657056BD9105AEBD
(1644168872.043896) can1 004#CD1DFABC00000000
(1644168872.046941) can1 005#7CD920BC4D5125BF
(1644168872.047522) can1 006#AF3F83BE00000000
(1644168872.053404) can1 003#E2105EBD2958BBBD
(1644168872.054149) can1 004#170EFABC00000000
(1644168872.057042) can1 005#DD35FABBBFB626BF
(1644168872.057773) can1 006#965668BE00000000
(1644168872.064623) can1 003#CFC064BD58EAC7BD
(1644168872.066037) can1 004#F915F9BC00000000
(1644168872.066888) can1 005#507756BBCA9825BF
(1644168872.067461) can1 006#E6F147BE00000000
(1644168872.072736) can1 003#AD6A6ABD457AD5BD
(1644168872.073289) can1 004#DA06F8BC00000000
(1644168872.074975) can1 005#35FA8EBACA9825BF
(1644168872.075680) can1 006#1FC929BE00000000
(1644168872.079011) can1 003#5E466CBD6601DCBD
(1644168872.079720) can1 004#521CF7BC00000000
(1644168872.081326) can1 005#35FA8E3B53C224BF
(1644168872.082061) can1 006#41DC0DBE00000000
(1644168872.087809) can1 003#84FD6FBD5BCCE8BD
(1644168872.088454) can1 004#B641F5BC00000000
(1644168872.090440) can1 005#35FA8E3B53C224BF
(1644168872.091005) can1 006#41DC0DBE00000000
(1644168872.096188) can1 003#423272BDEBD6F4BD
(1644168872.096810) can1 004#D8A0F4BC00000000
(1644168872.099419) can1 005#35FA0E3CDCEB23BF
(1644168872.100203) can1 006#7EFFD1BD00000000
(1644168872.103597) can1 003#B19272BDE955FBBD
(1644168872.104283) can1 004#44D3F2BC00000000
(1644168872.107165) can1 005#35FA8E3CF3AF21BF
(1644168872.107893) can1 006#EFAD95BD00000000
(1644168872.113318) can1 003#0BCD72BD80CD03BE
(1644168872.114036) can1 004#EE62F1BC00000000
(1644168872.115691) can1 005#AC87CD3C87BB1FBF
(1644168872.116340) can1 006#4D5125BD00000000
(1644168872.121403) can1 003#EF0672BD33EF09BE
(1644168872.122164) can1 004#9214F0BC00000000
(1644168872.123806) can1 005#5077D63CA4F01CBF
(1644168872.124434) can1 006#C2B8B2BB00000000
(1644168872.128043) can1 003#E6EC70BD970F0DBE
(1644168872.128655) can1 004#4685EEBC00000000
(1644168872.130625) can1 005#5077D63CA4F01CBF
(1644168872.132037) can1 006#C2B8B2BB00000000
(1644168872.136613) can1 003#35B06DBD9BEE12BE
(1644168872.138037) can1 004#0DA5ECBC00000000
(1644168872.139952) can1 005#63820A3DC79619BF
(1644168872.140613) can1 006#66A8BB3C00000000
(1644168872.144036) can1 003#341E6CBD336F15BE
(1644168872.144709) can1 004#1552EBBC00000000
(1644168872.147031) can1 005#AA611C3DEA3C16BF
(1644168872.147738) can1 006#DD357A3D00000000
(1644168872.153166) can1 003#FFDF66BDDF2C1BBE
(1644168872.153891) can1 004#0FD5E9BC00000000
(1644168872.156123) can1 005#7CD9203D8A2A13BF
(1644168872.156737) can1 006#3720C03D00000000
(1644168872.162520) can1 003#C2AC60BD2FA920BE
(1644168872.163071) can1 004#229BE7BC00000000
(1644168872.164803) can1 005#66A83B3D2F890FBF
(1644168872.166037) can1 006#AEADFE3D00000000
(1644168872.170540) can1 003#CB7859BDF60426BE
(1644168872.172038) can1 004#BDA2E5BC00000000
(1644168872.172852) can1 005#7EFF513D58A00BBF
(1644168872.173383) can1 006#9E7F1D3E00000000
(1644168872.177256) can1 003#D1D954BDC1C028BE
(1644168872.178015) can1 004#DAD3E4BC00000000
(1644168872.179645) can1 005#7EFF513D58A00BBF
(1644168872.180301) can1 006#9E7F1D3E00000000
(1644168872.186004) can1 003#CB1A4CBDA3BC2DBE
(1644168872.186647) can1 004#3751E4BC00000000
(1644168872.189517) can1 005#21EF5A3D0F5206BF
(1644168872.190241) can1 006#205C423E00000000
(1644168872.193670) can1 003#2CFE46BDEC5A30BE
(1644168872.194266) can1 004#EDB3E3BC00000000
(1644168872.196651) can1 005#C4DE633DAF3F03BF
(1644168872.198038) can1 006#21EF5A3E00000000
(1644168872.202766) can1 003#87423CBD271235BE
(1644168872.204037) can1 004#0AB5E2BC00000000
(1644168872.204981) can1 005#DD357A3DC000FDBE
(1644168872.205696) can1 006#2282733E00000000
(1644168872.210767) can1 003#848630BDA1AB39BE
(1644168872.211337) can1 004#4F07E2BC00000000
(1644168872.213037) can1 005#7B46883D2282F3BE
(1644168872.213741) can1 006#6F64893E00000000
(1644168872.217401) can1 003#C1F129BD9C083CBE
(1644168872.218186) can1 004#61DAE0BC00000000
(1644168872.219814) can1 005#7B46883D2282F3BE
(1644168872.220448) can1 006#6F64893E00000000
(1644168872.226255) can1 003#5ABF1DBDC63E40BE
(1644168872.226868) can1 004#A276DFBC00000000
(1644168872.228526) can1 005#920A863D6E3FECBE
(1644168872.229087) can1 006#0772933E00000000
(1644168872.232741) can1 003#5F1916BDC09B42BE
(1644168872.233289) can1 004#B994DFBC00000000
(1644168872.234954) can1 005#EFAD953DCA4FE3BE
(1644168872.235683) can1 006#8D2C9F3E00000000
(1644168872.240730) can1 003#C3EE08BDE5B046BE
(1644168872.241287) can1 004#6E8DDDBC00000000
(1644168872.242972) can1 005#939D9E3D21EFDABE
(1644168872.243680) can1 006#3CFEA63E00000000
(1644168872.247782) can1 003#424901BD4BAB48BE
(1644168872.248440) can1 004#AACCDDBC00000000
(1644168872.251107) can1 005#939D9E3D21EFDABE
(1644168872.251765) can1 006#3CFEA63E00000000
(1644168872.257575) can1 003#5B0EE3BC3CC24CBE
(1644168872.258250) can1 004#8378DDBC00000000
(1644168872.261136) can1 005#4D51A53D721DD3BE
(1644168872.261857) can1 006#D97CB03E00000000
(1644168872.266915) can1 003#2889C7BCFC3B50BE
(1644168872.267511) can1 004#A4ECDDBC00000000
(1644168872.269137) can1 005#C1259A3DC9BCCABE
(1644168872.269860) can1 006#884EB83E00000000
(1644168872.273762) can1 003#5C2EB6BC803552BE
(1644168872.273983) can1 004#0487DEBC00000000
(1644168872.275626) can1 005#0772933D2C3EC1BE
(1644168872.276270) can1 006#5AC6BC3E00000000
(1644168872.281629) can1 003#B99B99BCCBAE55BE
(1644168872.282263) can1 004#B23DDFBC00000000
(1644168872.283921) can1 005#1E36913D718ABABE
(1644168872.284507) can1 006#6037BC3E00000000
(1644168872.288185) can1 003#0B2088BC63A857BE
(1644168872.288796) can1 004#32F4E0BC00000000
(1644168872.291799) can1 005#1E36913D718ABABE
(1644168872.292439) can1 006#6037BC3E00000000
(1644168872.298127) can1 003#47FB52BCD9005BBE
(1644168872.298746) can1 004#E20CE2BC00000000
(1644168872.301442) can1 005#C092813DABF4B4BE
(1644168872.302182) can1 006#3720C03E00000000
(1644168872.307937) can1 003#898E19BC17175EBE
(1644168872.308586) can1 004#EF09E4BC00000000
(1644168872.311242) can1 005#68CE6C3DDFEDAFBE
(1644168872.311981) can1 006#26CDC13E00000000
(1644168872.317771) can1 003#2205C1BB465061BE
(1644168872.318428) can1 004#C717E4BC00000000
(1644168872.320105) can1 005#C092813D1FC9A9BE
(1644168872.320719) can1 006#77FBB93E00000000
(1644168872.326429) can1 003#7BAE1DBB7B8964BE
(1644168872.327036) can1 004#333DE4BC00000000
(1644168872.328737) can1 005#EFAD953D3CFEA6BE
(1644168872.330038) can1 006#B7D6B33E00000000
(1644168872.332746) can1 003#908A0EBAAB4366BE
(1644168872.334036) can1 004#48F2E3BC00000000
(1644168872.335038) can1 005#7CD9A03D53C2A4BE
(1644168872.335756) can1 006#E55EAF3E00000000
(1644168872.341446) can1 003#4D6E303B2D3E69BE
(1644168872.342173) can1 004#A5FEE3BC00000000
(1644168872.343739) can1 005#6415A33D87BB9FBE
(1644168872.344473) can1 006#1FC9A93E00000000
(1644168872.348254) can1 003#31A0913BE1D86ABE
(1644168872.348862) can1 004#33ACE4BC00000000
(1644168872.351751) can1 005#6415A33D87BB9FBE
(1644168872.352468) can1 006#1FC9A93E00000000
(1644168872.357571) can1 003#BDB7FB3B93B36DBE
(1644168872.358245) can1 004#72D6E4BC00000000
(1644168872.361029) can1 005#AA619C3DB0D29BBE
(1644168872.361621) can1 006#426FA63E00000000
(1644168872.366683) can1 003#C1FB2C3C254C70BE
(1644168872.367226) can1 004#A6B5E5BC00000000
(1644168872.369021) can1 005#0772933DE4CB96BE
(1644168872.369619) can1 006#7668A13E00000000
(1644168872.373104) can1 003#F45D453C0BAC71BE
(1644168872.373881) can1 004#1A3AE5BC00000000
